#! /usr/bin/vvp
:ivl_version "12.0 (stable)" "(v12_0-dirty)";
:ivl_delay_selection "TYPICAL";
:vpi_time_precision + 0;
:vpi_module "/usr/lib/ivl/system.vpi";
:vpi_module "/usr/lib/ivl/vhdl_sys.vpi";
:vpi_module "/usr/lib/ivl/vhdl_textio.vpi";
:vpi_module "/usr/lib/ivl/v2005_math.vpi";
:vpi_module "/usr/lib/ivl/va_math.vpi";
:vpi_module "/usr/lib/ivl/v2009.vpi";
S_0x620025b527e0 .scope package, "$unit" "$unit" 2 1;
 .timescale 0 0;
S_0x620025b83f10 .scope module, "axi4_lite_tb" "axi4_lite_tb" 3 1;
 .timescale 0 0;
P_0x620025b1c230 .param/l "ASZ" 1 3 4, +C4<00000000000000000000000000000010>;
P_0x620025b1c270 .param/l "DSZ" 1 3 3, +C4<00000000000000000000000000001000>;
P_0x620025b1c2b0 .param/l "SZ" 1 3 2, +C4<00000000000000000000000000100000>;
v0x620025ba8060_0 .var "_rst", 0 0;
v0x620025baa860_0 .var "a", 31 0;
v0x620025baa950_0 .net "araddr", 1 0, v0x620025ba64e0_0;  1 drivers
v0x620025baaa70_0 .net "arready", 0 0, v0x620025ba92e0_0;  1 drivers
v0x620025baab60_0 .net "arvalid", 0 0, v0x620025ba6660_0;  1 drivers
v0x620025baaca0_0 .net "awaddr", 1 0, v0x620025ba6770_0;  1 drivers
v0x620025baad90_0 .net "awready", 0 0, v0x620025ba9610_0;  1 drivers
v0x620025baae80_0 .net "awvalid", 0 0, v0x620025ba6910_0;  1 drivers
v0x620025baaf70_0 .var "b", 31 0;
v0x620025bab030_0 .net "bready", 0 0, v0x620025ba6ab0_0;  1 drivers
v0x620025bab0d0_0 .net "bresp", 0 0, v0x620025ba9880_0;  1 drivers
v0x620025bab1c0_0 .net "bvalid", 0 0, v0x620025ba9950_0;  1 drivers
v0x620025bab2b0_0 .var "clk", 0 0;
v0x620025bab350_0 .net "out_clk", 0 0, L_0x620025b8c8a0;  1 drivers
v0x620025bab3f0_0 .net "rdata", 7 0, v0x620025ba9fa0_0;  1 drivers
v0x620025bab4e0_0 .net "res", 63 0, L_0x620025bac370;  1 drivers
v0x620025bab580_0 .net "rready", 0 0, v0x620025ba74e0_0;  1 drivers
v0x620025bab780_0 .net "rresp", 0 0, v0x620025baa160_0;  1 drivers
v0x620025bab870_0 .net "rvalid", 0 0, v0x620025baa230_0;  1 drivers
v0x620025bab960_0 .net "wdata", 7 0, v0x620025ba7720_0;  1 drivers
v0x620025baba50_0 .net "wready", 0 0, v0x620025baa4a0_0;  1 drivers
v0x620025babb40_0 .net "wvalid", 0 0, v0x620025ba78c0_0;  1 drivers
S_0x620025b85070 .scope module, "master" "axi4_lite_master_wrapper" 3 39, 4 1 0, S_0x620025b83f10;
 .timescale 0 0;
    .port_info 0 /INPUT 1 "_rst";
    .port_info 1 /INPUT 1 "clk";
    .port_info 2 /OUTPUT 1 "out_clk";
    .port_info 3 /INPUT 32 "a";
    .port_info 4 /INPUT 32 "b";
    .port_info 5 /OUTPUT 64 "res";
    .port_info 6 /OUTPUT 2 "awaddr";
    .port_info 7 /OUTPUT 1 "awvalid";
    .port_info 8 /INPUT 1 "awready";
    .port_info 9 /OUTPUT 8 "wdata";
    .port_info 10 /OUTPUT 1 "wvalid";
    .port_info 11 /INPUT 1 "wready";
    .port_info 12 /INPUT 1 "bresp";
    .port_info 13 /INPUT 1 "bvalid";
    .port_info 14 /OUTPUT 1 "bready";
    .port_info 15 /OUTPUT 2 "araddr";
    .port_info 16 /OUTPUT 1 "arvalid";
    .port_info 17 /INPUT 1 "arready";
    .port_info 18 /INPUT 8 "rdata";
    .port_info 19 /INPUT 1 "rvalid";
    .port_info 20 /OUTPUT 1 "rready";
    .port_info 21 /INPUT 1 "rresp";
P_0x620025b4b9b0 .param/l "ASZ" 0 4 3, +C4<00000000000000000000000000000010>;
P_0x620025b4b9f0 .param/l "DSZ" 0 4 4, +C4<00000000000000000000000000001000>;
P_0x620025b4ba30 .param/l "SZ" 0 4 2, +C4<00000000000000000000000000100000>;
L_0x620025b8c8a0 .functor BUFZ 1, v0x620025bab2b0_0, C4<0>, C4<0>, C4<0>;
v0x620025b5a0e0_0 .net "_rst", 0 0, v0x620025ba8060_0;  1 drivers
v0x620025b81820_0 .net "a", 31 0, v0x620025baa860_0;  1 drivers
v0x620025ba64e0_0 .var "araddr", 1 0;
v0x620025ba65a0_0 .net "arready", 0 0, v0x620025ba92e0_0;  alias, 1 drivers
v0x620025ba6660_0 .var "arvalid", 0 0;
v0x620025ba6770_0 .var "awaddr", 1 0;
v0x620025ba6850_0 .net "awready", 0 0, v0x620025ba9610_0;  alias, 1 drivers
v0x620025ba6910_0 .var "awvalid", 0 0;
v0x620025ba69d0_0 .net "b", 31 0, v0x620025baaf70_0;  1 drivers
v0x620025ba6ab0_0 .var "bready", 0 0;
v0x620025ba6b70_0 .net "bresp", 0 0, v0x620025ba9880_0;  alias, 1 drivers
v0x620025ba6c30_0 .net "bvalid", 0 0, v0x620025ba9950_0;  alias, 1 drivers
v0x620025ba6cf0_0 .net "clk", 0 0, v0x620025bab2b0_0;  1 drivers
v0x620025ba6db0_0 .var/2s "i", 31 0;
v0x620025ba6e90 .array "inregs", 7 0, 7 0;
v0x620025ba7050_0 .net "out_clk", 0 0, L_0x620025b8c8a0;  alias, 1 drivers
v0x620025ba7110 .array "outregs", 7 0;
v0x620025ba7110_0 .net v0x620025ba7110 0, 7 0, L_0x620025babc70; 1 drivers
v0x620025ba7110_1 .net v0x620025ba7110 1, 7 0, L_0x620025babd60; 1 drivers
v0x620025ba7110_2 .net v0x620025ba7110 2, 7 0, L_0x620025babe00; 1 drivers
v0x620025ba7110_3 .net v0x620025ba7110 3, 7 0, L_0x620025babf30; 1 drivers
v0x620025ba7110_4 .net v0x620025ba7110 4, 7 0, L_0x620025babfd0; 1 drivers
v0x620025ba7110_5 .net v0x620025ba7110 5, 7 0, L_0x620025bac070; 1 drivers
v0x620025ba7110_6 .net v0x620025ba7110 6, 7 0, L_0x620025bac150; 1 drivers
v0x620025ba7110_7 .net v0x620025ba7110 7, 7 0, L_0x620025bac280; 1 drivers
v0x620025ba7320_0 .net "rdata", 7 0, v0x620025ba9fa0_0;  alias, 1 drivers
v0x620025ba7400_0 .net "res", 63 0, L_0x620025bac370;  alias, 1 drivers
v0x620025ba74e0_0 .var "rready", 0 0;
v0x620025ba75a0_0 .net "rresp", 0 0, v0x620025baa160_0;  alias, 1 drivers
v0x620025ba7660_0 .net "rvalid", 0 0, v0x620025baa230_0;  alias, 1 drivers
v0x620025ba7720_0 .var "wdata", 7 0;
v0x620025ba7800_0 .net "wready", 0 0, v0x620025baa4a0_0;  alias, 1 drivers
v0x620025ba78c0_0 .var "wvalid", 0 0;
E_0x620025b69b60/0 .event negedge, v0x620025b5a0e0_0;
E_0x620025b69b60/1 .event posedge, v0x620025ba6cf0_0;
E_0x620025b69b60 .event/or E_0x620025b69b60/0, E_0x620025b69b60/1;
L_0x620025babc70 .part v0x620025baa860_0, 0, 8;
L_0x620025babd60 .part v0x620025baa860_0, 8, 8;
L_0x620025babe00 .part v0x620025baa860_0, 16, 8;
L_0x620025babf30 .part v0x620025baa860_0, 24, 8;
L_0x620025babfd0 .part v0x620025baaf70_0, 0, 8;
L_0x620025bac070 .part v0x620025baaf70_0, 8, 8;
L_0x620025bac150 .part v0x620025baaf70_0, 16, 8;
L_0x620025bac280 .part v0x620025baaf70_0, 24, 8;
v0x620025ba6e90_0 .array/port v0x620025ba6e90, 0;
v0x620025ba6e90_1 .array/port v0x620025ba6e90, 1;
v0x620025ba6e90_2 .array/port v0x620025ba6e90, 2;
v0x620025ba6e90_3 .array/port v0x620025ba6e90, 3;
LS_0x620025bac370_0_0 .concat [ 8 8 8 8], v0x620025ba6e90_0, v0x620025ba6e90_1, v0x620025ba6e90_2, v0x620025ba6e90_3;
v0x620025ba6e90_4 .array/port v0x620025ba6e90, 4;
v0x620025ba6e90_5 .array/port v0x620025ba6e90, 5;
v0x620025ba6e90_6 .array/port v0x620025ba6e90, 6;
v0x620025ba6e90_7 .array/port v0x620025ba6e90, 7;
LS_0x620025bac370_0_4 .concat [ 8 8 8 8], v0x620025ba6e90_4, v0x620025ba6e90_5, v0x620025ba6e90_6, v0x620025ba6e90_7;
L_0x620025bac370 .concat [ 32 32 0 0], LS_0x620025bac370_0_0, LS_0x620025bac370_0_4;
S_0x620025ba7c40 .scope module, "slave" "axi4_lite_slave_wrapper" 3 73, 5 1 0, S_0x620025b83f10;
 .timescale 0 0;
    .port_info 0 /INPUT 1 "_rst";
    .port_info 1 /INPUT 1 "clk";
    .port_info 2 /INPUT 2 "awaddr";
    .port_info 3 /INPUT 1 "awvalid";
    .port_info 4 /OUTPUT 1 "awready";
    .port_info 5 /INPUT 8 "wdata";
    .port_info 6 /INPUT 1 "wvalid";
    .port_info 7 /OUTPUT 1 "wready";
    .port_info 8 /OUTPUT 1 "bresp";
    .port_info 9 /OUTPUT 1 "bvalid";
    .port_info 10 /INPUT 1 "bready";
    .port_info 11 /INPUT 2 "araddr";
    .port_info 12 /INPUT 1 "arvalid";
    .port_info 13 /OUTPUT 1 "arready";
    .port_info 14 /OUTPUT 8 "rdata";
    .port_info 15 /OUTPUT 1 "rvalid";
    .port_info 16 /INPUT 1 "rready";
    .port_info 17 /OUTPUT 1 "rresp";
P_0x620025ba7e40 .param/l "ASZ" 0 5 3, +C4<00000000000000000000000000000010>;
P_0x620025ba7e80 .param/l "DSZ" 0 5 4, +C4<00000000000000000000000000001000>;
P_0x620025ba7ec0 .param/l "SZ" 0 5 2, +C4<00000000000000000000000000100000>;
v0x620025ba9090_0 .net "_rst", 0 0, v0x620025ba8060_0;  alias, 1 drivers
v0x620025ba9150_0 .net "araddr", 1 0, v0x620025ba64e0_0;  alias, 1 drivers
v0x620025ba9210_0 .var "araddr_reg", 1 0;
v0x620025ba92e0_0 .var "arready", 0 0;
v0x620025ba93b0_0 .net "arvalid", 0 0, v0x620025ba6660_0;  alias, 1 drivers
v0x620025ba94a0_0 .net "awaddr", 1 0, v0x620025ba6770_0;  alias, 1 drivers
v0x620025ba9570_0 .var "awaddr_reg", 1 0;
v0x620025ba9610_0 .var "awready", 0 0;
v0x620025ba96e0_0 .net "awvalid", 0 0, v0x620025ba6910_0;  alias, 1 drivers
v0x620025ba97b0_0 .net "bready", 0 0, v0x620025ba6ab0_0;  alias, 1 drivers
v0x620025ba9880_0 .var "bresp", 0 0;
v0x620025ba9950_0 .var "bvalid", 0 0;
v0x620025ba9a20_0 .net "clk", 0 0, L_0x620025b8c8a0;  alias, 1 drivers
v0x620025ba9ac0_0 .var/2s "i", 31 0;
v0x620025ba9b60 .array "inregs", 7 0, 7 0;
L_0x71a86fae20a8 .functor BUFT 1, C4<1>, C4<0>, C4<0>, C4<0>;
v0x620025ba9d10_0 .net "mulready", 0 0, L_0x71a86fae20a8;  1 drivers
v0x620025ba9db0 .array "outregs", 7 0;
v0x620025ba9db0_0 .net v0x620025ba9db0 0, 7 0, L_0x620025bbd2c0; 1 drivers
v0x620025ba9db0_1 .net v0x620025ba9db0 1, 7 0, L_0x620025bbd0e0; 1 drivers
v0x620025ba9db0_2 .net v0x620025ba9db0 2, 7 0, L_0x620025bbcfc0; 1 drivers
v0x620025ba9db0_3 .net v0x620025ba9db0 3, 7 0, L_0x620025bbcf20; 1 drivers
v0x620025ba9db0_4 .net v0x620025ba9db0 4, 7 0, L_0x620025bbce10; 1 drivers
v0x620025ba9db0_5 .net v0x620025ba9db0 5, 7 0, L_0x620025bbccb0; 1 drivers
v0x620025ba9db0_6 .net v0x620025ba9db0 6, 7 0, L_0x620025bbcbe0; 1 drivers
v0x620025ba9db0_7 .net v0x620025ba9db0 7, 7 0, L_0x620025bbcac0; 1 drivers
v0x620025ba9fa0_0 .var "rdata", 7 0;
v0x620025baa090_0 .net "rready", 0 0, v0x620025ba74e0_0;  alias, 1 drivers
v0x620025baa160_0 .var "rresp", 0 0;
v0x620025baa230_0 .var "rvalid", 0 0;
v0x620025baa300_0 .var "start", 0 0;
v0x620025baa3d0_0 .net "wdata", 7 0, v0x620025ba7720_0;  alias, 1 drivers
v0x620025baa4a0_0 .var "wready", 0 0;
v0x620025baa570_0 .net "wvalid", 0 0, v0x620025ba78c0_0;  alias, 1 drivers
E_0x620025b67b80/0 .event negedge, v0x620025b5a0e0_0;
E_0x620025b67b80/1 .event posedge, v0x620025ba7050_0;
E_0x620025b67b80 .event/or E_0x620025b67b80/0, E_0x620025b67b80/1;
v0x620025ba9b60_0 .array/port v0x620025ba9b60, 0;
v0x620025ba9b60_1 .array/port v0x620025ba9b60, 1;
v0x620025ba9b60_2 .array/port v0x620025ba9b60, 2;
v0x620025ba9b60_3 .array/port v0x620025ba9b60, 3;
L_0x620025bbc7c0 .concat [ 8 8 8 8], v0x620025ba9b60_0, v0x620025ba9b60_1, v0x620025ba9b60_2, v0x620025ba9b60_3;
v0x620025ba9b60_4 .array/port v0x620025ba9b60, 4;
v0x620025ba9b60_5 .array/port v0x620025ba9b60, 5;
v0x620025ba9b60_6 .array/port v0x620025ba9b60, 6;
v0x620025ba9b60_7 .array/port v0x620025ba9b60, 7;
L_0x620025bbc910 .concat [ 8 8 8 8], v0x620025ba9b60_4, v0x620025ba9b60_5, v0x620025ba9b60_6, v0x620025ba9b60_7;
L_0x620025bbcac0 .part L_0x620025bbc630, 56, 8;
L_0x620025bbcbe0 .part L_0x620025bbc630, 48, 8;
L_0x620025bbccb0 .part L_0x620025bbc630, 40, 8;
L_0x620025bbce10 .part L_0x620025bbc630, 32, 8;
L_0x620025bbcf20 .part L_0x620025bbc630, 24, 8;
L_0x620025bbcfc0 .part L_0x620025bbc630, 16, 8;
L_0x620025bbd0e0 .part L_0x620025bbc630, 8, 8;
L_0x620025bbd2c0 .part L_0x620025bbc630, 0, 8;
S_0x620025ba82e0 .scope module, "main_module" "mult" 5 40, 6 1 0, S_0x620025ba7c40;
 .timescale 0 0;
    .port_info 0 /INPUT 1 "clk";
    .port_info 1 /INPUT 1 "_rst";
    .port_info 2 /INPUT 32 "a";
    .port_info 3 /INPUT 32 "b";
    .port_info 4 /INPUT 1 "start";
    .port_info 5 /OUTPUT 64 "res";
    .port_info 6 /OUTPUT 1 "ready";
P_0x620025ba84e0 .param/l "SZ" 0 6 2, +C4<00000000000000000000000000100000>;
v0x620025ba8660_0 .net *"_ivl_0", 63 0, L_0x620025bac460;  1 drivers
L_0x71a86fae2018 .functor BUFT 1, C4<00000000000000000000000000000000>, C4<0>, C4<0>, C4<0>;
v0x620025ba8760_0 .net *"_ivl_3", 31 0, L_0x71a86fae2018;  1 drivers
v0x620025ba8840_0 .net *"_ivl_4", 63 0, L_0x620025bbc540;  1 drivers
L_0x71a86fae2060 .functor BUFT 1, C4<00000000000000000000000000000000>, C4<0>, C4<0>, C4<0>;
v0x620025ba8930_0 .net *"_ivl_7", 31 0, L_0x71a86fae2060;  1 drivers
v0x620025ba8a10_0 .net "_rst", 0 0, v0x620025ba8060_0;  alias, 1 drivers
v0x620025ba8b00_0 .net "a", 31 0, L_0x620025bbc7c0;  1 drivers
v0x620025ba8bc0_0 .net "b", 31 0, L_0x620025bbc910;  1 drivers
v0x620025ba8ca0_0 .net "clk", 0 0, L_0x620025b8c8a0;  alias, 1 drivers
v0x620025ba8d70_0 .net "ready", 0 0, L_0x71a86fae20a8;  alias, 1 drivers
v0x620025ba8e10_0 .net "res", 63 0, L_0x620025bbc630;  1 drivers
v0x620025ba8ef0_0 .net "start", 0 0, v0x620025baa300_0;  1 drivers
L_0x620025bac460 .concat [ 32 32 0 0], L_0x620025bbc7c0, L_0x71a86fae2018;
L_0x620025bbc540 .concat [ 32 32 0 0], L_0x620025bbc910, L_0x71a86fae2060;
L_0x620025bbc630 .arith/mult 64, L_0x620025bac460, L_0x620025bbc540;
    .scope S_0x620025b85070;
T_0 ;
    %wait E_0x620025b69b60;
    %load/vec4 v0x620025b5a0e0_0;
    %inv;
    %flag_set/vec4 8;
    %jmp/0xz  T_0.0, 8;
    %pushi/vec4 0, 0, 8;
    %assign/vec4 v0x620025ba7720_0, 0;
    %pushi/vec4 0, 0, 1;
    %assign/vec4 v0x620025ba78c0_0, 0;
    %pushi/vec4 0, 0, 1;
    %assign/vec4 v0x620025ba6ab0_0, 0;
    %pushi/vec4 0, 0, 1;
    %assign/vec4 v0x620025ba74e0_0, 0;
    %pushi/vec4 0, 0, 32;
    %store/vec4 v0x620025ba6db0_0, 0, 32;
T_0.2 ;
    %load/vec4 v0x620025ba6db0_0;
    %cmpi/s 8, 0, 32;
    %jmp/0xz T_0.3, 5;
    %pushi/vec4 0, 0, 8;
    %ix/getv/s 3, v0x620025ba6db0_0;
    %ix/load 4, 0, 0; Constant delay
    %assign/vec4/a/d v0x620025ba6e90, 0, 4;
    %load/vec4 v0x620025ba6db0_0;
    %addi 1, 0, 32;
    %cast2;
    %store/vec4 v0x620025ba6db0_0, 0, 32;
    %jmp T_0.2;
T_0.3 ;
    %pushi/vec4 0, 0, 2;
    %assign/vec4 v0x620025ba6770_0, 0;
    %pushi/vec4 1, 0, 1;
    %assign/vec4 v0x620025ba6910_0, 0;
    %pushi/vec4 0, 0, 2;
    %assign/vec4 v0x620025ba64e0_0, 0;
    %pushi/vec4 1, 0, 1;
    %assign/vec4 v0x620025ba6660_0, 0;
    %jmp T_0.1;
T_0.0 ;
    %load/vec4 v0x620025ba6910_0;
    %load/vec4 v0x620025ba6850_0;
    %and;
    %flag_set/vec4 8;
    %jmp/0xz  T_0.4, 8;
    %load/vec4 v0x620025ba6770_0;
    %pad/u 5;
    %ix/vec4 4;
    %load/vec4a v0x620025ba7110, 4;
    %vpi_call/w 4 72 "$display", $time, " | master | ", "snd wdata : ", S<0,vec4,u8>, " ind : %1d", v0x620025ba6770_0 {1 0 0};
    %pushi/vec4 0, 0, 1;
    %assign/vec4 v0x620025ba6910_0, 0;
    %load/vec4 v0x620025ba6770_0;
    %pad/u 5;
    %ix/vec4 4;
    %load/vec4a v0x620025ba7110, 4;
    %assign/vec4 v0x620025ba7720_0, 0;
    %pushi/vec4 1, 0, 1;
    %assign/vec4 v0x620025ba78c0_0, 0;
T_0.4 ;
    %load/vec4 v0x620025ba78c0_0;
    %load/vec4 v0x620025ba7800_0;
    %and;
    %flag_set/vec4 8;
    %jmp/0xz  T_0.6, 8;
    %pushi/vec4 0, 0, 1;
    %assign/vec4 v0x620025ba78c0_0, 0;
    %pushi/vec4 0, 0, 8;
    %assign/vec4 v0x620025ba7720_0, 0;
    %pushi/vec4 1, 0, 1;
    %assign/vec4 v0x620025ba6ab0_0, 0;
T_0.6 ;
    %load/vec4 v0x620025ba6ab0_0;
    %load/vec4 v0x620025ba6c30_0;
    %and;
    %flag_set/vec4 8;
    %jmp/0xz  T_0.8, 8;
    %vpi_call/w 4 84 "$display", $time, " | master | ", "bresp : ", v0x620025ba6b70_0 {0 0 0};
    %pushi/vec4 0, 0, 1;
    %assign/vec4 v0x620025ba6ab0_0, 0;
    %pushi/vec4 1, 0, 1;
    %assign/vec4 v0x620025ba6910_0, 0;
    %load/vec4 v0x620025ba6770_0;
    %pad/u 4;
    %addi 1, 0, 4;
    %pushi/vec4 7, 0, 4;
    %and;
    %pad/u 2;
    %assign/vec4 v0x620025ba6770_0, 0;
T_0.8 ;
    %load/vec4 v0x620025ba6660_0;
    %load/vec4 v0x620025ba65a0_0;
    %and;
    %flag_set/vec4 8;
    %jmp/0xz  T_0.10, 8;
    %load/vec4 v0x620025ba64e0_0;
    %pad/u 32;
    %cmpi/e 0, 0, 32;
    %jmp/0xz  T_0.12, 4;
    %vpi_call/w 4 92 "$display", $time, " | master | ", "res : ", v0x620025ba7400_0 {0 0 0};
T_0.12 ;
    %pushi/vec4 0, 0, 1;
    %assign/vec4 v0x620025ba6660_0, 0;
    %pushi/vec4 1, 0, 1;
    %assign/vec4 v0x620025ba74e0_0, 0;
T_0.10 ;
    %load/vec4 v0x620025ba74e0_0;
    %load/vec4 v0x620025ba7660_0;
    %and;
    %flag_set/vec4 8;
    %jmp/0xz  T_0.14, 8;
    %vpi_call/w 4 98 "$display", $time, " | master | ", "rcv rdata : ", v0x620025ba7320_0, " ind : %1d", v0x620025ba64e0_0 {0 0 0};
    %load/vec4 v0x620025ba7320_0;
    %load/vec4 v0x620025ba64e0_0;
    %pad/u 5;
    %ix/vec4 3;
    %ix/load 4, 0, 0; Constant delay
    %assign/vec4/a/d v0x620025ba6e90, 0, 4;
    %pushi/vec4 0, 0, 1;
    %assign/vec4 v0x620025ba74e0_0, 0;
    %pushi/vec4 1, 0, 1;
    %assign/vec4 v0x620025ba6660_0, 0;
    %load/vec4 v0x620025ba64e0_0;
    %pad/u 4;
    %addi 1, 0, 4;
    %pushi/vec4 7, 0, 4;
    %and;
    %pad/u 2;
    %assign/vec4 v0x620025ba64e0_0, 0;
T_0.14 ;
T_0.1 ;
    %jmp T_0;
    .thread T_0;
    .scope S_0x620025ba7c40;
T_1 ;
    %wait E_0x620025b67b80;
    %load/vec4 v0x620025ba9090_0;
    %inv;
    %flag_set/vec4 8;
    %jmp/0xz  T_1.0, 8;
    %pushi/vec4 0, 0, 2;
    %assign/vec4 v0x620025ba9570_0, 0;
    %pushi/vec4 0, 0, 2;
    %assign/vec4 v0x620025ba9210_0, 0;
    %pushi/vec4 0, 0, 32;
    %store/vec4 v0x620025ba9ac0_0, 0, 32;
T_1.2 ;
    %load/vec4 v0x620025ba9ac0_0;
    %cmpi/s 8, 0, 32;
    %jmp/0xz T_1.3, 5;
    %pushi/vec4 0, 0, 8;
    %ix/getv/s 3, v0x620025ba9ac0_0;
    %ix/load 4, 0, 0; Constant delay
    %assign/vec4/a/d v0x620025ba9b60, 0, 4;
    %load/vec4 v0x620025ba9ac0_0;
    %addi 1, 0, 32;
    %cast2;
    %store/vec4 v0x620025ba9ac0_0, 0, 32;
    %jmp T_1.2;
T_1.3 ;
    %pushi/vec4 1, 0, 1;
    %assign/vec4 v0x620025baa300_0, 0;
    %pushi/vec4 0, 0, 1;
    %assign/vec4 v0x620025baa4a0_0, 0;
    %pushi/vec4 0, 0, 1;
    %assign/vec4 v0x620025ba9880_0, 0;
    %pushi/vec4 0, 0, 1;
    %assign/vec4 v0x620025ba9950_0, 0;
    %pushi/vec4 0, 0, 8;
    %assign/vec4 v0x620025ba9fa0_0, 0;
    %pushi/vec4 0, 0, 1;
    %assign/vec4 v0x620025baa230_0, 0;
    %pushi/vec4 0, 0, 1;
    %assign/vec4 v0x620025baa160_0, 0;
    %pushi/vec4 1, 0, 1;
    %assign/vec4 v0x620025ba9610_0, 0;
    %pushi/vec4 1, 0, 1;
    %assign/vec4 v0x620025ba92e0_0, 0;
    %jmp T_1.1;
T_1.0 ;
    %load/vec4 v0x620025ba9610_0;
    %load/vec4 v0x620025ba96e0_0;
    %and;
    %flag_set/vec4 8;
    %jmp/0xz  T_1.4, 8;
    %load/vec4 v0x620025ba94a0_0;
    %assign/vec4 v0x620025ba9570_0, 0;
    %pushi/vec4 0, 0, 1;
    %assign/vec4 v0x620025ba9610_0, 0;
    %pushi/vec4 1, 0, 1;
    %assign/vec4 v0x620025baa4a0_0, 0;
T_1.4 ;
    %load/vec4 v0x620025baa4a0_0;
    %load/vec4 v0x620025baa570_0;
    %and;
    %flag_set/vec4 8;
    %jmp/0xz  T_1.6, 8;
    %vpi_call/w 5 91 "$display", $time, " | slave | ", "rcv wdata : ", v0x620025baa3d0_0, " ind : %1d", v0x620025ba9570_0 {0 0 0};
    %load/vec4 v0x620025baa3d0_0;
    %load/vec4 v0x620025ba9570_0;
    %pad/u 5;
    %ix/vec4 3;
    %ix/load 4, 0, 0; Constant delay
    %assign/vec4/a/d v0x620025ba9b60, 0, 4;
    %pushi/vec4 0, 0, 1;
    %assign/vec4 v0x620025baa4a0_0, 0;
    %pushi/vec4 1, 0, 1;
    %assign/vec4 v0x620025ba9880_0, 0;
    %pushi/vec4 1, 0, 1;
    %assign/vec4 v0x620025ba9950_0, 0;
T_1.6 ;
    %load/vec4 v0x620025ba97b0_0;
    %load/vec4 v0x620025ba9950_0;
    %and;
    %flag_set/vec4 8;
    %jmp/0xz  T_1.8, 8;
    %pushi/vec4 0, 0, 1;
    %assign/vec4 v0x620025ba9950_0, 0;
    %pushi/vec4 1, 0, 1;
    %assign/vec4 v0x620025ba9610_0, 0;
T_1.8 ;
    %load/vec4 v0x620025ba92e0_0;
    %load/vec4 v0x620025ba93b0_0;
    %and;
    %load/vec4 v0x620025ba9d10_0;
    %and;
    %flag_set/vec4 8;
    %jmp/0xz  T_1.10, 8;
    %load/vec4 v0x620025ba9150_0;
    %pad/u 5;
    %ix/vec4 4;
    %load/vec4a v0x620025ba9db0, 4;
    %vpi_call/w 5 104 "$display", $time, " | slave | ", "snd rdata : ", S<0,vec4,u8>, " ind : %1d", v0x620025ba9150_0 {1 0 0};
    %load/vec4 v0x620025ba9150_0;
    %assign/vec4 v0x620025ba9210_0, 0;
    %pushi/vec4 0, 0, 1;
    %assign/vec4 v0x620025ba92e0_0, 0;
    %load/vec4 v0x620025ba9150_0;
    %pad/u 5;
    %ix/vec4 4;
    %load/vec4a v0x620025ba9db0, 4;
    %assign/vec4 v0x620025ba9fa0_0, 0;
    %pushi/vec4 1, 0, 1;
    %assign/vec4 v0x620025baa230_0, 0;
    %pushi/vec4 1, 0, 1;
    %assign/vec4 v0x620025baa160_0, 0;
T_1.10 ;
    %load/vec4 v0x620025baa090_0;
    %load/vec4 v0x620025baa230_0;
    %and;
    %flag_set/vec4 8;
    %jmp/0xz  T_1.12, 8;
    %pushi/vec4 0, 0, 1;
    %assign/vec4 v0x620025baa230_0, 0;
    %pushi/vec4 0, 0, 8;
    %assign/vec4 v0x620025ba9fa0_0, 0;
    %pushi/vec4 0, 0, 1;
    %assign/vec4 v0x620025baa160_0, 0;
    %pushi/vec4 1, 0, 1;
    %assign/vec4 v0x620025ba92e0_0, 0;
T_1.12 ;
T_1.1 ;
    %jmp T_1;
    .thread T_1;
    .scope S_0x620025b83f10;
T_2 ;
    %pushi/vec4 0, 0, 1;
    %store/vec4 v0x620025bab2b0_0, 0, 1;
    %pushi/vec4 0, 0, 32;
    %store/vec4 v0x620025baa860_0, 0, 32;
    %pushi/vec4 0, 0, 32;
    %store/vec4 v0x620025baaf70_0, 0, 32;
    %pushi/vec4 0, 0, 1;
    %store/vec4 v0x620025ba8060_0, 0, 1;
T_2.0 ;
    %delay 1, 0;
    %load/vec4 v0x620025bab2b0_0;
    %nor/r;
    %store/vec4 v0x620025bab2b0_0, 0, 1;
    %jmp T_2.0;
    %end;
    .thread T_2;
    .scope S_0x620025b83f10;
T_3 ;
    %vpi_call/w 3 108 "$monitor", $time, " | tb | ", v0x620025baa860_0, " * ", v0x620025baaf70_0, " => ", v0x620025bab4e0_0 {0 0 0};
    %delay 8, 0;
    %pushi/vec4 1, 0, 1;
    %store/vec4 v0x620025ba8060_0, 0, 1;
    %pushi/vec4 12551, 0, 32;
    %store/vec4 v0x620025baa860_0, 0, 32;
    %pushi/vec4 41245, 0, 32;
    %store/vec4 v0x620025baaf70_0, 0, 32;
    %delay 128, 0;
    %vpi_call/w 3 112 "$finish" {0 0 0};
    %end;
    .thread T_3;
# The file index is used to find the file name in the following table.
:file_names 7;
    "N/A";
    "<interactive>";
    "-";
    "src/axi4_lite_tb.sv";
    "src/axi4_lite_master_wrapper.sv";
    "src/axi4_lite_slave_wrapper.sv";
    "src/mult.sv";
