#! /usr/bin/vvp
:ivl_version "12.0 (stable)" "(v12_0-dirty)";
:ivl_delay_selection "TYPICAL";
:vpi_time_precision + 0;
:vpi_module "/usr/lib/ivl/system.vpi";
:vpi_module "/usr/lib/ivl/vhdl_sys.vpi";
:vpi_module "/usr/lib/ivl/vhdl_textio.vpi";
:vpi_module "/usr/lib/ivl/v2005_math.vpi";
:vpi_module "/usr/lib/ivl/va_math.vpi";
:vpi_module "/usr/lib/ivl/v2009.vpi";
S_0x5ebf95fb6b10 .scope package, "$unit" "$unit" 2 1;
 .timescale 0 0;
S_0x5ebf95fbee60 .scope module, "axi4_tb" "axi4_tb" 3 1;
 .timescale 0 0;
P_0x5ebf95f4d230 .param/l "ASZ" 1 3 4, +C4<00000000000000000000000000000010>;
P_0x5ebf95f4d270 .param/l "DSZ" 1 3 3, +C4<00000000000000000000000000001000>;
P_0x5ebf95f4d2b0 .param/l "SZ" 1 3 2, +C4<00000000000000000000000000100000>;
v0x5ebf95fe7910_0 .var "_rst", 0 0;
v0x5ebf95fe79d0_0 .var "a", 31 0;
v0x5ebf95fe7ac0_0 .net "araddr", 1 0, v0x5ebf95f8f3e0_0;  1 drivers
v0x5ebf95fe7be0_0 .net "arready", 0 0, v0x5ebf95fe5f00_0;  1 drivers
v0x5ebf95fe7cd0_0 .net "arvalid", 0 0, v0x5ebf95fe3020_0;  1 drivers
v0x5ebf95fe7e10_0 .net "awaddr", 1 0, v0x5ebf95fe3130_0;  1 drivers
v0x5ebf95fe7f00_0 .net "awready", 0 0, v0x5ebf95fe6230_0;  1 drivers
v0x5ebf95fe7ff0_0 .net "awvalid", 0 0, v0x5ebf95fe32d0_0;  1 drivers
v0x5ebf95fe80e0_0 .var "b", 31 0;
v0x5ebf95fe81a0_0 .net "bready", 0 0, v0x5ebf95fe3470_0;  1 drivers
v0x5ebf95fe8240_0 .net "bresp", 0 0, v0x5ebf95fe64a0_0;  1 drivers
v0x5ebf95fe8330_0 .net "bvalid", 0 0, v0x5ebf95fe6570_0;  1 drivers
v0x5ebf95fe8420_0 .var "clk", 0 0;
v0x5ebf95fe84c0_0 .net "out_clk", 0 0, L_0x5ebf95fc96a0;  1 drivers
v0x5ebf95fe8560_0 .net "rdata", 7 0, v0x5ebf95fe6d00_0;  1 drivers
v0x5ebf95fe8650_0 .net "res", 63 0, L_0x5ebf95fe96c0;  1 drivers
v0x5ebf95fe86f0_0 .net "rlast", 0 0, v0x5ebf95fe6df0_0;  1 drivers
v0x5ebf95fe88f0_0 .net "rready", 0 0, v0x5ebf95fe4040_0;  1 drivers
v0x5ebf95fe89e0_0 .net "rresp", 0 0, v0x5ebf95fe7030_0;  1 drivers
v0x5ebf95fe8ad0_0 .net "rvalid", 0 0, v0x5ebf95fe7100_0;  1 drivers
v0x5ebf95fe8bc0_0 .net "wdata", 7 0, v0x5ebf95fe4280_0;  1 drivers
v0x5ebf95fe8cb0_0 .net "wlast", 0 0, v0x5ebf95fe4360_0;  1 drivers
v0x5ebf95fe8da0_0 .net "wready", 0 0, v0x5ebf95fe74e0_0;  1 drivers
v0x5ebf95fe8e90_0 .net "wvalid", 0 0, v0x5ebf95fe45c0_0;  1 drivers
S_0x5ebf95fbffc0 .scope module, "master" "axi4_master_wrapper" 3 41, 4 1 0, S_0x5ebf95fbee60;
 .timescale 0 0;
    .port_info 0 /INPUT 1 "_rst";
    .port_info 1 /INPUT 1 "clk";
    .port_info 2 /OUTPUT 1 "out_clk";
    .port_info 3 /INPUT 32 "a";
    .port_info 4 /INPUT 32 "b";
    .port_info 5 /OUTPUT 64 "res";
    .port_info 6 /OUTPUT 2 "awaddr";
    .port_info 7 /OUTPUT 1 "awvalid";
    .port_info 8 /INPUT 1 "awready";
    .port_info 9 /OUTPUT 8 "wdata";
    .port_info 10 /OUTPUT 1 "wvalid";
    .port_info 11 /INPUT 1 "wready";
    .port_info 12 /OUTPUT 1 "wlast";
    .port_info 13 /INPUT 1 "bresp";
    .port_info 14 /INPUT 1 "bvalid";
    .port_info 15 /OUTPUT 1 "bready";
    .port_info 16 /OUTPUT 2 "araddr";
    .port_info 17 /OUTPUT 1 "arvalid";
    .port_info 18 /INPUT 1 "arready";
    .port_info 19 /INPUT 8 "rdata";
    .port_info 20 /INPUT 1 "rvalid";
    .port_info 21 /OUTPUT 1 "rready";
    .port_info 22 /INPUT 1 "rlast";
    .port_info 23 /INPUT 1 "rresp";
P_0x5ebf95f4dc70 .param/l "ASZ" 0 4 3, +C4<00000000000000000000000000000010>;
P_0x5ebf95f4dcb0 .param/l "DSZ" 0 4 4, +C4<00000000000000000000000000001000>;
P_0x5ebf95f4dcf0 .param/l "SZ" 0 4 2, +C4<00000000000000000000000000100000>;
L_0x5ebf95fc96a0 .functor BUFZ 1, v0x5ebf95fe8420_0, C4<0>, C4<0>, C4<0>;
v0x5ebf95f4cc50_0 .net "_rst", 0 0, v0x5ebf95fe7910_0;  1 drivers
v0x5ebf95f998a0_0 .net "a", 31 0, v0x5ebf95fe79d0_0;  1 drivers
v0x5ebf95f8f3e0_0 .var "araddr", 1 0;
v0x5ebf95f87280_0 .net "arready", 0 0, v0x5ebf95fe5f00_0;  alias, 1 drivers
v0x5ebf95fe3020_0 .var "arvalid", 0 0;
v0x5ebf95fe3130_0 .var "awaddr", 1 0;
v0x5ebf95fe3210_0 .net "awready", 0 0, v0x5ebf95fe6230_0;  alias, 1 drivers
v0x5ebf95fe32d0_0 .var "awvalid", 0 0;
v0x5ebf95fe3390_0 .net "b", 31 0, v0x5ebf95fe80e0_0;  1 drivers
v0x5ebf95fe3470_0 .var "bready", 0 0;
v0x5ebf95fe3530_0 .net "bresp", 0 0, v0x5ebf95fe64a0_0;  alias, 1 drivers
v0x5ebf95fe35f0_0 .net "bvalid", 0 0, v0x5ebf95fe6570_0;  alias, 1 drivers
v0x5ebf95fe36b0_0 .net "clk", 0 0, v0x5ebf95fe8420_0;  1 drivers
v0x5ebf95fe3770_0 .var/2s "i", 31 0;
v0x5ebf95fe3850 .array "inregs", 7 0, 7 0;
v0x5ebf95fe3a10_0 .net "out_clk", 0 0, L_0x5ebf95fc96a0;  alias, 1 drivers
v0x5ebf95fe3ad0 .array "outregs", 7 0;
v0x5ebf95fe3ad0_0 .net v0x5ebf95fe3ad0 0, 7 0, L_0x5ebf95fe8fc0; 1 drivers
v0x5ebf95fe3ad0_1 .net v0x5ebf95fe3ad0 1, 7 0, L_0x5ebf95fe90b0; 1 drivers
v0x5ebf95fe3ad0_2 .net v0x5ebf95fe3ad0 2, 7 0, L_0x5ebf95fe9150; 1 drivers
v0x5ebf95fe3ad0_3 .net v0x5ebf95fe3ad0 3, 7 0, L_0x5ebf95fe9280; 1 drivers
v0x5ebf95fe3ad0_4 .net v0x5ebf95fe3ad0 4, 7 0, L_0x5ebf95fe9320; 1 drivers
v0x5ebf95fe3ad0_5 .net v0x5ebf95fe3ad0 5, 7 0, L_0x5ebf95fe93c0; 1 drivers
v0x5ebf95fe3ad0_6 .net v0x5ebf95fe3ad0 6, 7 0, L_0x5ebf95fe94a0; 1 drivers
v0x5ebf95fe3ad0_7 .net v0x5ebf95fe3ad0 7, 7 0, L_0x5ebf95fe95d0; 1 drivers
v0x5ebf95fe3ce0_0 .net "rdata", 7 0, v0x5ebf95fe6d00_0;  alias, 1 drivers
v0x5ebf95fe3dc0_0 .net "res", 63 0, L_0x5ebf95fe96c0;  alias, 1 drivers
v0x5ebf95fe3ea0_0 .net "rlast", 0 0, v0x5ebf95fe6df0_0;  alias, 1 drivers
v0x5ebf95fe3f60_0 .var "rpos", 7 0;
v0x5ebf95fe4040_0 .var "rready", 0 0;
v0x5ebf95fe4100_0 .net "rresp", 0 0, v0x5ebf95fe7030_0;  alias, 1 drivers
v0x5ebf95fe41c0_0 .net "rvalid", 0 0, v0x5ebf95fe7100_0;  alias, 1 drivers
v0x5ebf95fe4280_0 .var "wdata", 7 0;
v0x5ebf95fe4360_0 .var "wlast", 0 0;
v0x5ebf95fe4420_0 .var "wpos", 7 0;
v0x5ebf95fe4500_0 .net "wready", 0 0, v0x5ebf95fe74e0_0;  alias, 1 drivers
v0x5ebf95fe45c0_0 .var "wvalid", 0 0;
E_0x5ebf95f9cc60/0 .event negedge, v0x5ebf95f4cc50_0;
E_0x5ebf95f9cc60/1 .event posedge, v0x5ebf95fe36b0_0;
E_0x5ebf95f9cc60 .event/or E_0x5ebf95f9cc60/0, E_0x5ebf95f9cc60/1;
L_0x5ebf95fe8fc0 .part v0x5ebf95fe79d0_0, 0, 8;
L_0x5ebf95fe90b0 .part v0x5ebf95fe79d0_0, 8, 8;
L_0x5ebf95fe9150 .part v0x5ebf95fe79d0_0, 16, 8;
L_0x5ebf95fe9280 .part v0x5ebf95fe79d0_0, 24, 8;
L_0x5ebf95fe9320 .part v0x5ebf95fe80e0_0, 0, 8;
L_0x5ebf95fe93c0 .part v0x5ebf95fe80e0_0, 8, 8;
L_0x5ebf95fe94a0 .part v0x5ebf95fe80e0_0, 16, 8;
L_0x5ebf95fe95d0 .part v0x5ebf95fe80e0_0, 24, 8;
v0x5ebf95fe3850_0 .array/port v0x5ebf95fe3850, 0;
v0x5ebf95fe3850_1 .array/port v0x5ebf95fe3850, 1;
v0x5ebf95fe3850_2 .array/port v0x5ebf95fe3850, 2;
v0x5ebf95fe3850_3 .array/port v0x5ebf95fe3850, 3;
LS_0x5ebf95fe96c0_0_0 .concat [ 8 8 8 8], v0x5ebf95fe3850_0, v0x5ebf95fe3850_1, v0x5ebf95fe3850_2, v0x5ebf95fe3850_3;
v0x5ebf95fe3850_4 .array/port v0x5ebf95fe3850, 4;
v0x5ebf95fe3850_5 .array/port v0x5ebf95fe3850, 5;
v0x5ebf95fe3850_6 .array/port v0x5ebf95fe3850, 6;
v0x5ebf95fe3850_7 .array/port v0x5ebf95fe3850, 7;
LS_0x5ebf95fe96c0_0_4 .concat [ 8 8 8 8], v0x5ebf95fe3850_4, v0x5ebf95fe3850_5, v0x5ebf95fe3850_6, v0x5ebf95fe3850_7;
L_0x5ebf95fe96c0 .concat [ 32 32 0 0], LS_0x5ebf95fe96c0_0_0, LS_0x5ebf95fe96c0_0_4;
S_0x5ebf95fe4a50 .scope module, "slave" "axi4_slave_wrapper" 3 77, 5 1 0, S_0x5ebf95fbee60;
 .timescale 0 0;
    .port_info 0 /INPUT 1 "_rst";
    .port_info 1 /INPUT 1 "clk";
    .port_info 2 /INPUT 2 "awaddr";
    .port_info 3 /INPUT 1 "awvalid";
    .port_info 4 /OUTPUT 1 "awready";
    .port_info 5 /INPUT 8 "wdata";
    .port_info 6 /INPUT 1 "wvalid";
    .port_info 7 /OUTPUT 1 "wready";
    .port_info 8 /INPUT 1 "wlast";
    .port_info 9 /OUTPUT 1 "bresp";
    .port_info 10 /OUTPUT 1 "bvalid";
    .port_info 11 /INPUT 1 "bready";
    .port_info 12 /INPUT 2 "araddr";
    .port_info 13 /INPUT 1 "arvalid";
    .port_info 14 /OUTPUT 1 "arready";
    .port_info 15 /OUTPUT 8 "rdata";
    .port_info 16 /OUTPUT 1 "rvalid";
    .port_info 17 /INPUT 1 "rready";
    .port_info 18 /OUTPUT 1 "rlast";
    .port_info 19 /OUTPUT 1 "rresp";
P_0x5ebf95fba140 .param/l "ASZ" 0 5 3, +C4<00000000000000000000000000000010>;
P_0x5ebf95fba180 .param/l "DSZ" 0 5 4, +C4<00000000000000000000000000001000>;
P_0x5ebf95fba1c0 .param/l "SZ" 0 5 2, +C4<00000000000000000000000000100000>;
v0x5ebf95fe5cb0_0 .net "_rst", 0 0, v0x5ebf95fe7910_0;  alias, 1 drivers
v0x5ebf95fe5d70_0 .net "araddr", 1 0, v0x5ebf95f8f3e0_0;  alias, 1 drivers
v0x5ebf95fe5e30_0 .var "araddr_reg", 1 0;
v0x5ebf95fe5f00_0 .var "arready", 0 0;
v0x5ebf95fe5fd0_0 .net "arvalid", 0 0, v0x5ebf95fe3020_0;  alias, 1 drivers
v0x5ebf95fe60c0_0 .net "awaddr", 1 0, v0x5ebf95fe3130_0;  alias, 1 drivers
v0x5ebf95fe6190_0 .var "awaddr_reg", 1 0;
v0x5ebf95fe6230_0 .var "awready", 0 0;
v0x5ebf95fe6300_0 .net "awvalid", 0 0, v0x5ebf95fe32d0_0;  alias, 1 drivers
v0x5ebf95fe63d0_0 .net "bready", 0 0, v0x5ebf95fe3470_0;  alias, 1 drivers
v0x5ebf95fe64a0_0 .var "bresp", 0 0;
v0x5ebf95fe6570_0 .var "bvalid", 0 0;
v0x5ebf95fe6640_0 .net "clk", 0 0, L_0x5ebf95fc96a0;  alias, 1 drivers
v0x5ebf95fe66e0_0 .var/2s "i", 31 0;
v0x5ebf95fe6780 .array "inregs", 15 0, 7 0;
L_0x7e2dd32d70a8 .functor BUFT 1, C4<1>, C4<0>, C4<0>, C4<0>;
v0x5ebf95fe6a70_0 .net "mulready", 0 0, L_0x7e2dd32d70a8;  1 drivers
v0x5ebf95fe6b10 .array "outregs", 7 0;
v0x5ebf95fe6b10_0 .net v0x5ebf95fe6b10 0, 7 0, L_0x5ebf95ffa5a0; 1 drivers
v0x5ebf95fe6b10_1 .net v0x5ebf95fe6b10 1, 7 0, L_0x5ebf95ffa3c0; 1 drivers
v0x5ebf95fe6b10_2 .net v0x5ebf95fe6b10 2, 7 0, L_0x5ebf95ffa2a0; 1 drivers
v0x5ebf95fe6b10_3 .net v0x5ebf95fe6b10 3, 7 0, L_0x5ebf95ffa200; 1 drivers
v0x5ebf95fe6b10_4 .net v0x5ebf95fe6b10 4, 7 0, L_0x5ebf95ffa0f0; 1 drivers
v0x5ebf95fe6b10_5 .net v0x5ebf95fe6b10 5, 7 0, L_0x5ebf95ff9f90; 1 drivers
v0x5ebf95fe6b10_6 .net v0x5ebf95fe6b10 6, 7 0, L_0x5ebf95ff9ec0; 1 drivers
v0x5ebf95fe6b10_7 .net v0x5ebf95fe6b10 7, 7 0, L_0x5ebf95ff9da0; 1 drivers
v0x5ebf95fe6d00_0 .var "rdata", 7 0;
v0x5ebf95fe6df0_0 .var "rlast", 0 0;
v0x5ebf95fe6ec0_0 .var "rpos", 7 0;
v0x5ebf95fe6f60_0 .net "rready", 0 0, v0x5ebf95fe4040_0;  alias, 1 drivers
v0x5ebf95fe7030_0 .var "rresp", 0 0;
v0x5ebf95fe7100_0 .var "rvalid", 0 0;
v0x5ebf95fe71d0_0 .var "start", 0 0;
v0x5ebf95fe72a0_0 .net "wdata", 7 0, v0x5ebf95fe4280_0;  alias, 1 drivers
v0x5ebf95fe7370_0 .net "wlast", 0 0, v0x5ebf95fe4360_0;  alias, 1 drivers
v0x5ebf95fe7440_0 .var "wpos", 7 0;
v0x5ebf95fe74e0_0 .var "wready", 0 0;
v0x5ebf95fe75b0_0 .net "wvalid", 0 0, v0x5ebf95fe45c0_0;  alias, 1 drivers
E_0x5ebf95fa2ff0/0 .event negedge, v0x5ebf95f4cc50_0;
E_0x5ebf95fa2ff0/1 .event posedge, v0x5ebf95fe3a10_0;
E_0x5ebf95fa2ff0 .event/or E_0x5ebf95fa2ff0/0, E_0x5ebf95fa2ff0/1;
v0x5ebf95fe6780_0 .array/port v0x5ebf95fe6780, 0;
v0x5ebf95fe6780_1 .array/port v0x5ebf95fe6780, 1;
v0x5ebf95fe6780_2 .array/port v0x5ebf95fe6780, 2;
v0x5ebf95fe6780_3 .array/port v0x5ebf95fe6780, 3;
L_0x5ebf95ff9aa0 .concat [ 8 8 8 8], v0x5ebf95fe6780_0, v0x5ebf95fe6780_1, v0x5ebf95fe6780_2, v0x5ebf95fe6780_3;
v0x5ebf95fe6780_4 .array/port v0x5ebf95fe6780, 4;
v0x5ebf95fe6780_5 .array/port v0x5ebf95fe6780, 5;
v0x5ebf95fe6780_6 .array/port v0x5ebf95fe6780, 6;
v0x5ebf95fe6780_7 .array/port v0x5ebf95fe6780, 7;
L_0x5ebf95ff9bf0 .concat [ 8 8 8 8], v0x5ebf95fe6780_4, v0x5ebf95fe6780_5, v0x5ebf95fe6780_6, v0x5ebf95fe6780_7;
L_0x5ebf95ff9da0 .part L_0x5ebf95ff9910, 56, 8;
L_0x5ebf95ff9ec0 .part L_0x5ebf95ff9910, 48, 8;
L_0x5ebf95ff9f90 .part L_0x5ebf95ff9910, 40, 8;
L_0x5ebf95ffa0f0 .part L_0x5ebf95ff9910, 32, 8;
L_0x5ebf95ffa200 .part L_0x5ebf95ff9910, 24, 8;
L_0x5ebf95ffa2a0 .part L_0x5ebf95ff9910, 16, 8;
L_0x5ebf95ffa3c0 .part L_0x5ebf95ff9910, 8, 8;
L_0x5ebf95ffa5a0 .part L_0x5ebf95ff9910, 0, 8;
S_0x5ebf95fe4fb0 .scope module, "main_module" "mult" 5 42, 6 1 0, S_0x5ebf95fe4a50;
 .timescale 0 0;
    .port_info 0 /INPUT 1 "clk";
    .port_info 1 /INPUT 1 "_rst";
    .port_info 2 /INPUT 32 "a";
    .port_info 3 /INPUT 32 "b";
    .port_info 4 /INPUT 1 "start";
    .port_info 5 /OUTPUT 64 "res";
    .port_info 6 /OUTPUT 1 "ready";
P_0x5ebf95fe51b0 .param/l "SZ" 0 6 2, +C4<00000000000000000000000000100000>;
v0x5ebf95fe5280_0 .net *"_ivl_0", 63 0, L_0x5ebf95fe97b0;  1 drivers
L_0x7e2dd32d7018 .functor BUFT 1, C4<00000000000000000000000000000000>, C4<0>, C4<0>, C4<0>;
v0x5ebf95fe5380_0 .net *"_ivl_3", 31 0, L_0x7e2dd32d7018;  1 drivers
v0x5ebf95fe5460_0 .net *"_ivl_4", 63 0, L_0x5ebf95fe3960;  1 drivers
L_0x7e2dd32d7060 .functor BUFT 1, C4<00000000000000000000000000000000>, C4<0>, C4<0>, C4<0>;
v0x5ebf95fe5550_0 .net *"_ivl_7", 31 0, L_0x7e2dd32d7060;  1 drivers
v0x5ebf95fe5630_0 .net "_rst", 0 0, v0x5ebf95fe7910_0;  alias, 1 drivers
v0x5ebf95fe5720_0 .net "a", 31 0, L_0x5ebf95ff9aa0;  1 drivers
v0x5ebf95fe57e0_0 .net "b", 31 0, L_0x5ebf95ff9bf0;  1 drivers
v0x5ebf95fe58c0_0 .net "clk", 0 0, L_0x5ebf95fc96a0;  alias, 1 drivers
v0x5ebf95fe5990_0 .net "ready", 0 0, L_0x7e2dd32d70a8;  alias, 1 drivers
v0x5ebf95fe5a30_0 .net "res", 63 0, L_0x5ebf95ff9910;  1 drivers
v0x5ebf95fe5b10_0 .net "start", 0 0, v0x5ebf95fe71d0_0;  1 drivers
L_0x5ebf95fe97b0 .concat [ 32 32 0 0], L_0x5ebf95ff9aa0, L_0x7e2dd32d7018;
L_0x5ebf95fe3960 .concat [ 32 32 0 0], L_0x5ebf95ff9bf0, L_0x7e2dd32d7060;
L_0x5ebf95ff9910 .arith/mult 64, L_0x5ebf95fe97b0, L_0x5ebf95fe3960;
    .scope S_0x5ebf95fbffc0;
T_0 ;
    %wait E_0x5ebf95f9cc60;
    %load/vec4 v0x5ebf95f4cc50_0;
    %inv;
    %flag_set/vec4 8;
    %jmp/0xz  T_0.0, 8;
    %pushi/vec4 0, 0, 8;
    %assign/vec4 v0x5ebf95fe4280_0, 0;
    %pushi/vec4 0, 0, 1;
    %assign/vec4 v0x5ebf95fe45c0_0, 0;
    %pushi/vec4 0, 0, 1;
    %assign/vec4 v0x5ebf95fe4360_0, 0;
    %pushi/vec4 0, 0, 1;
    %assign/vec4 v0x5ebf95fe3470_0, 0;
    %pushi/vec4 0, 0, 1;
    %assign/vec4 v0x5ebf95fe4040_0, 0;
    %pushi/vec4 0, 0, 32;
    %store/vec4 v0x5ebf95fe3770_0, 0, 32;
T_0.2 ;
    %load/vec4 v0x5ebf95fe3770_0;
    %cmpi/s 8, 0, 32;
    %jmp/0xz T_0.3, 5;
    %pushi/vec4 0, 0, 8;
    %ix/getv/s 3, v0x5ebf95fe3770_0;
    %ix/load 4, 0, 0; Constant delay
    %assign/vec4/a/d v0x5ebf95fe3850, 0, 4;
    %load/vec4 v0x5ebf95fe3770_0;
    %addi 1, 0, 32;
    %cast2;
    %store/vec4 v0x5ebf95fe3770_0, 0, 32;
    %jmp T_0.2;
T_0.3 ;
    %pushi/vec4 0, 0, 8;
    %assign/vec4 v0x5ebf95fe4420_0, 0;
    %pushi/vec4 0, 0, 8;
    %assign/vec4 v0x5ebf95fe3f60_0, 0;
    %pushi/vec4 0, 0, 2;
    %assign/vec4 v0x5ebf95fe3130_0, 0;
    %pushi/vec4 1, 0, 1;
    %assign/vec4 v0x5ebf95fe32d0_0, 0;
    %pushi/vec4 0, 0, 2;
    %assign/vec4 v0x5ebf95f8f3e0_0, 0;
    %pushi/vec4 1, 0, 1;
    %assign/vec4 v0x5ebf95fe3020_0, 0;
    %jmp T_0.1;
T_0.0 ;
    %load/vec4 v0x5ebf95fe32d0_0;
    %load/vec4 v0x5ebf95fe3210_0;
    %and;
    %flag_set/vec4 8;
    %jmp/0xz  T_0.4, 8;
    %load/vec4 v0x5ebf95fe3130_0;
    %pad/u 32;
    %muli 4, 0, 32;
    %ix/vec4 4;
    %load/vec4a v0x5ebf95fe3ad0, 4;
    %load/vec4 v0x5ebf95fe3130_0;
    %pad/u 32;
    %muli 4, 0, 32;
    %vpi_call/w 4 79 "$display", $time, " | master | ", "snd wdata : ", S<1,vec4,u8>, " ind : %1d", S<0,vec4,u32> {2 0 0};
    %pushi/vec4 0, 0, 1;
    %assign/vec4 v0x5ebf95fe32d0_0, 0;
    %load/vec4 v0x5ebf95fe3130_0;
    %pad/u 32;
    %muli 4, 0, 32;
    %ix/vec4 4;
    %load/vec4a v0x5ebf95fe3ad0, 4;
    %assign/vec4 v0x5ebf95fe4280_0, 0;
    %load/vec4 v0x5ebf95fe3130_0;
    %pad/u 8;
    %muli 4, 0, 8;
    %addi 1, 0, 8;
    %assign/vec4 v0x5ebf95fe4420_0, 0;
    %pushi/vec4 1, 0, 1;
    %assign/vec4 v0x5ebf95fe45c0_0, 0;
    %pushi/vec4 0, 0, 1;
    %assign/vec4 v0x5ebf95fe4360_0, 0;
T_0.4 ;
    %load/vec4 v0x5ebf95fe45c0_0;
    %load/vec4 v0x5ebf95fe4500_0;
    %and;
    %flag_set/vec4 8;
    %jmp/0xz  T_0.6, 8;
    %vpi_call/w 4 88 "$display", $time, " | master | ", "snd wdata : ", &A<v0x5ebf95fe3ad0, v0x5ebf95fe4420_0 >, " ind : %1d", v0x5ebf95fe4420_0 {0 0 0};
    %ix/getv 4, v0x5ebf95fe4420_0;
    %load/vec4a v0x5ebf95fe3ad0, 4;
    %assign/vec4 v0x5ebf95fe4280_0, 0;
    %load/vec4 v0x5ebf95fe4420_0;
    %addi 1, 0, 8;
    %assign/vec4 v0x5ebf95fe4420_0, 0;
    %load/vec4 v0x5ebf95fe4420_0;
    %pad/u 32;
    %pushi/vec4 3, 0, 32;
    %and;
    %pushi/vec4 3, 0, 32;
    %cmp/e;
    %flag_get/vec4 4;
    %assign/vec4 v0x5ebf95fe4360_0, 0;
T_0.6 ;
    %load/vec4 v0x5ebf95fe45c0_0;
    %load/vec4 v0x5ebf95fe4500_0;
    %and;
    %load/vec4 v0x5ebf95fe4360_0;
    %and;
    %flag_set/vec4 8;
    %jmp/0xz  T_0.8, 8;
    %pushi/vec4 0, 0, 1;
    %assign/vec4 v0x5ebf95fe45c0_0, 0;
    %pushi/vec4 0, 0, 1;
    %assign/vec4 v0x5ebf95fe4360_0, 0;
    %pushi/vec4 0, 0, 8;
    %assign/vec4 v0x5ebf95fe4280_0, 0;
    %pushi/vec4 1, 0, 1;
    %assign/vec4 v0x5ebf95fe3470_0, 0;
T_0.8 ;
    %load/vec4 v0x5ebf95fe3470_0;
    %load/vec4 v0x5ebf95fe35f0_0;
    %and;
    %flag_set/vec4 8;
    %jmp/0xz  T_0.10, 8;
    %vpi_call/w 4 100 "$display", $time, " | master | ", "bresp : ", v0x5ebf95fe3530_0 {0 0 0};
    %pushi/vec4 0, 0, 1;
    %assign/vec4 v0x5ebf95fe3470_0, 0;
    %pushi/vec4 1, 0, 1;
    %assign/vec4 v0x5ebf95fe32d0_0, 0;
    %load/vec4 v0x5ebf95fe3130_0;
    %addi 1, 0, 2;
    %pushi/vec4 1, 0, 2;
    %and;
    %assign/vec4 v0x5ebf95fe3130_0, 0;
T_0.10 ;
    %load/vec4 v0x5ebf95fe3020_0;
    %load/vec4 v0x5ebf95f87280_0;
    %and;
    %flag_set/vec4 8;
    %jmp/0xz  T_0.12, 8;
    %vpi_call/w 4 107 "$display", $time, " | master | ", "res : ", v0x5ebf95fe3dc0_0 {0 0 0};
    %pushi/vec4 0, 0, 1;
    %assign/vec4 v0x5ebf95fe3020_0, 0;
    %pushi/vec4 0, 0, 8;
    %assign/vec4 v0x5ebf95fe3f60_0, 0;
    %pushi/vec4 1, 0, 1;
    %assign/vec4 v0x5ebf95fe4040_0, 0;
T_0.12 ;
    %load/vec4 v0x5ebf95fe4040_0;
    %load/vec4 v0x5ebf95fe41c0_0;
    %and;
    %flag_set/vec4 8;
    %jmp/0xz  T_0.14, 8;
    %vpi_call/w 4 113 "$display", $time, " | master | ", "rcv rdata : ", v0x5ebf95fe3ce0_0, " ind : %1d", v0x5ebf95fe3f60_0 {0 0 0};
    %load/vec4 v0x5ebf95fe3ce0_0;
    %ix/getv 3, v0x5ebf95fe3f60_0;
    %ix/load 4, 0, 0; Constant delay
    %assign/vec4/a/d v0x5ebf95fe3850, 0, 4;
    %load/vec4 v0x5ebf95fe3f60_0;
    %addi 1, 0, 8;
    %assign/vec4 v0x5ebf95fe3f60_0, 0;
T_0.14 ;
    %load/vec4 v0x5ebf95fe4040_0;
    %load/vec4 v0x5ebf95fe41c0_0;
    %and;
    %load/vec4 v0x5ebf95fe3ea0_0;
    %and;
    %flag_set/vec4 8;
    %jmp/0xz  T_0.16, 8;
    %pushi/vec4 0, 0, 1;
    %assign/vec4 v0x5ebf95fe4040_0, 0;
    %pushi/vec4 1, 0, 1;
    %assign/vec4 v0x5ebf95fe3020_0, 0;
T_0.16 ;
T_0.1 ;
    %jmp T_0;
    .thread T_0;
    .scope S_0x5ebf95fe4a50;
T_1 ;
    %wait E_0x5ebf95fa2ff0;
    %load/vec4 v0x5ebf95fe5cb0_0;
    %inv;
    %flag_set/vec4 8;
    %jmp/0xz  T_1.0, 8;
    %pushi/vec4 0, 0, 8;
    %assign/vec4 v0x5ebf95fe7440_0, 0;
    %pushi/vec4 0, 0, 8;
    %assign/vec4 v0x5ebf95fe6ec0_0, 0;
    %pushi/vec4 0, 0, 2;
    %assign/vec4 v0x5ebf95fe6190_0, 0;
    %pushi/vec4 0, 0, 2;
    %assign/vec4 v0x5ebf95fe5e30_0, 0;
    %pushi/vec4 0, 0, 32;
    %store/vec4 v0x5ebf95fe66e0_0, 0, 32;
T_1.2 ;
    %load/vec4 v0x5ebf95fe66e0_0;
    %cmpi/s 16, 0, 32;
    %jmp/0xz T_1.3, 5;
    %pushi/vec4 0, 0, 8;
    %ix/getv/s 3, v0x5ebf95fe66e0_0;
    %ix/load 4, 0, 0; Constant delay
    %assign/vec4/a/d v0x5ebf95fe6780, 0, 4;
    %load/vec4 v0x5ebf95fe66e0_0;
    %addi 1, 0, 32;
    %cast2;
    %store/vec4 v0x5ebf95fe66e0_0, 0, 32;
    %jmp T_1.2;
T_1.3 ;
    %pushi/vec4 1, 0, 1;
    %assign/vec4 v0x5ebf95fe71d0_0, 0;
    %pushi/vec4 0, 0, 1;
    %assign/vec4 v0x5ebf95fe74e0_0, 0;
    %pushi/vec4 0, 0, 1;
    %assign/vec4 v0x5ebf95fe64a0_0, 0;
    %pushi/vec4 0, 0, 1;
    %assign/vec4 v0x5ebf95fe6570_0, 0;
    %pushi/vec4 0, 0, 8;
    %assign/vec4 v0x5ebf95fe6d00_0, 0;
    %pushi/vec4 0, 0, 1;
    %assign/vec4 v0x5ebf95fe7100_0, 0;
    %pushi/vec4 0, 0, 1;
    %assign/vec4 v0x5ebf95fe6df0_0, 0;
    %pushi/vec4 0, 0, 1;
    %assign/vec4 v0x5ebf95fe7030_0, 0;
    %pushi/vec4 1, 0, 1;
    %assign/vec4 v0x5ebf95fe6230_0, 0;
    %pushi/vec4 1, 0, 1;
    %assign/vec4 v0x5ebf95fe5f00_0, 0;
    %jmp T_1.1;
T_1.0 ;
    %load/vec4 v0x5ebf95fe6230_0;
    %load/vec4 v0x5ebf95fe6300_0;
    %and;
    %flag_set/vec4 8;
    %jmp/0xz  T_1.4, 8;
    %load/vec4 v0x5ebf95fe60c0_0;
    %assign/vec4 v0x5ebf95fe6190_0, 0;
    %load/vec4 v0x5ebf95fe60c0_0;
    %pad/u 32;
    %muli 4, 0, 32;
    %pad/u 8;
    %assign/vec4 v0x5ebf95fe7440_0, 0;
    %pushi/vec4 0, 0, 1;
    %assign/vec4 v0x5ebf95fe6230_0, 0;
    %pushi/vec4 1, 0, 1;
    %assign/vec4 v0x5ebf95fe74e0_0, 0;
T_1.4 ;
    %load/vec4 v0x5ebf95fe74e0_0;
    %load/vec4 v0x5ebf95fe75b0_0;
    %and;
    %flag_set/vec4 8;
    %jmp/0xz  T_1.6, 8;
    %vpi_call/w 5 99 "$display", $time, " | slave | ", "rcv wdata : ", v0x5ebf95fe72a0_0, " ind : %1d", v0x5ebf95fe7440_0 {0 0 0};
    %load/vec4 v0x5ebf95fe72a0_0;
    %ix/getv 3, v0x5ebf95fe7440_0;
    %ix/load 4, 0, 0; Constant delay
    %assign/vec4/a/d v0x5ebf95fe6780, 0, 4;
    %load/vec4 v0x5ebf95fe7440_0;
    %addi 1, 0, 8;
    %assign/vec4 v0x5ebf95fe7440_0, 0;
T_1.6 ;
    %load/vec4 v0x5ebf95fe74e0_0;
    %load/vec4 v0x5ebf95fe75b0_0;
    %and;
    %load/vec4 v0x5ebf95fe7370_0;
    %and;
    %flag_set/vec4 8;
    %jmp/0xz  T_1.8, 8;
    %pushi/vec4 0, 0, 1;
    %assign/vec4 v0x5ebf95fe74e0_0, 0;
    %pushi/vec4 1, 0, 1;
    %assign/vec4 v0x5ebf95fe64a0_0, 0;
    %pushi/vec4 1, 0, 1;
    %assign/vec4 v0x5ebf95fe6570_0, 0;
T_1.8 ;
    %load/vec4 v0x5ebf95fe63d0_0;
    %load/vec4 v0x5ebf95fe6570_0;
    %and;
    %flag_set/vec4 8;
    %jmp/0xz  T_1.10, 8;
    %pushi/vec4 0, 0, 1;
    %assign/vec4 v0x5ebf95fe6570_0, 0;
    %pushi/vec4 1, 0, 1;
    %assign/vec4 v0x5ebf95fe6230_0, 0;
T_1.10 ;
    %load/vec4 v0x5ebf95fe5f00_0;
    %load/vec4 v0x5ebf95fe5fd0_0;
    %and;
    %load/vec4 v0x5ebf95fe6a70_0;
    %and;
    %flag_set/vec4 8;
    %jmp/0xz  T_1.12, 8;
    %vpi_call/w 5 115 "$display", $time, " | slave | ", "snd rdata : ", v0x5ebf95fe6b10_0, " ind : %1d", 32'sb00000000000000000000000000000000 {0 0 0};
    %load/vec4 v0x5ebf95fe5d70_0;
    %assign/vec4 v0x5ebf95fe5e30_0, 0;
    %pushi/vec4 0, 0, 1;
    %assign/vec4 v0x5ebf95fe5f00_0, 0;
    %ix/load 4, 0, 0;
    %flag_set/imm 4, 0;
    %load/vec4a v0x5ebf95fe6b10, 4;
    %assign/vec4 v0x5ebf95fe6d00_0, 0;
    %pushi/vec4 1, 0, 8;
    %assign/vec4 v0x5ebf95fe6ec0_0, 0;
    %pushi/vec4 1, 0, 1;
    %assign/vec4 v0x5ebf95fe7100_0, 0;
    %pushi/vec4 1, 0, 1;
    %assign/vec4 v0x5ebf95fe7030_0, 0;
    %pushi/vec4 0, 0, 1;
    %assign/vec4 v0x5ebf95fe6df0_0, 0;
T_1.12 ;
    %load/vec4 v0x5ebf95fe6f60_0;
    %load/vec4 v0x5ebf95fe7100_0;
    %and;
    %flag_set/vec4 8;
    %jmp/0xz  T_1.14, 8;
    %vpi_call/w 5 125 "$display", $time, " | slave | ", "snd rdata : ", &A<v0x5ebf95fe6b10, v0x5ebf95fe6ec0_0 >, " ind : %1d", v0x5ebf95fe6ec0_0 {0 0 0};
    %ix/getv 4, v0x5ebf95fe6ec0_0;
    %load/vec4a v0x5ebf95fe6b10, 4;
    %assign/vec4 v0x5ebf95fe6d00_0, 0;
    %load/vec4 v0x5ebf95fe6ec0_0;
    %addi 1, 0, 8;
    %assign/vec4 v0x5ebf95fe6ec0_0, 0;
    %load/vec4 v0x5ebf95fe6ec0_0;
    %pad/u 32;
    %pushi/vec4 7, 0, 32;
    %cmp/e;
    %flag_get/vec4 4;
    %assign/vec4 v0x5ebf95fe6df0_0, 0;
T_1.14 ;
    %load/vec4 v0x5ebf95fe6f60_0;
    %load/vec4 v0x5ebf95fe7100_0;
    %and;
    %load/vec4 v0x5ebf95fe6df0_0;
    %and;
    %flag_set/vec4 8;
    %jmp/0xz  T_1.16, 8;
    %pushi/vec4 0, 0, 1;
    %assign/vec4 v0x5ebf95fe7100_0, 0;
    %pushi/vec4 0, 0, 8;
    %assign/vec4 v0x5ebf95fe6d00_0, 0;
    %pushi/vec4 0, 0, 1;
    %assign/vec4 v0x5ebf95fe6df0_0, 0;
    %pushi/vec4 0, 0, 1;
    %assign/vec4 v0x5ebf95fe7030_0, 0;
    %pushi/vec4 1, 0, 1;
    %assign/vec4 v0x5ebf95fe5f00_0, 0;
T_1.16 ;
T_1.1 ;
    %jmp T_1;
    .thread T_1;
    .scope S_0x5ebf95fbee60;
T_2 ;
    %pushi/vec4 0, 0, 1;
    %store/vec4 v0x5ebf95fe8420_0, 0, 1;
    %pushi/vec4 0, 0, 32;
    %store/vec4 v0x5ebf95fe79d0_0, 0, 32;
    %pushi/vec4 0, 0, 32;
    %store/vec4 v0x5ebf95fe80e0_0, 0, 32;
    %pushi/vec4 0, 0, 1;
    %store/vec4 v0x5ebf95fe7910_0, 0, 1;
T_2.0 ;
    %delay 1, 0;
    %load/vec4 v0x5ebf95fe8420_0;
    %nor/r;
    %store/vec4 v0x5ebf95fe8420_0, 0, 1;
    %jmp T_2.0;
    %end;
    .thread T_2;
    .scope S_0x5ebf95fbee60;
T_3 ;
    %vpi_call/w 3 114 "$monitor", $time, " | tb | ", v0x5ebf95fe79d0_0, " * ", v0x5ebf95fe80e0_0, " => ", v0x5ebf95fe8650_0 {0 0 0};
    %delay 8, 0;
    %pushi/vec4 1, 0, 1;
    %store/vec4 v0x5ebf95fe7910_0, 0, 1;
    %pushi/vec4 12551, 0, 32;
    %store/vec4 v0x5ebf95fe79d0_0, 0, 32;
    %pushi/vec4 41245, 0, 32;
    %store/vec4 v0x5ebf95fe80e0_0, 0, 32;
    %delay 64, 0;
    %vpi_call/w 3 118 "$finish" {0 0 0};
    %end;
    .thread T_3;
# The file index is used to find the file name in the following table.
:file_names 7;
    "N/A";
    "<interactive>";
    "-";
    "src/axi4_tb.sv";
    "src/axi4_master_wrapper.sv";
    "src/axi4_slave_wrapper.sv";
    "src/mult.sv";
