#! /usr/bin/vvp
:ivl_version "12.0 (stable)" "(v12_0-dirty)";
:ivl_delay_selection "TYPICAL";
:vpi_time_precision + 0;
:vpi_module "/usr/lib/ivl/system.vpi";
:vpi_module "/usr/lib/ivl/vhdl_sys.vpi";
:vpi_module "/usr/lib/ivl/vhdl_textio.vpi";
:vpi_module "/usr/lib/ivl/v2005_math.vpi";
:vpi_module "/usr/lib/ivl/va_math.vpi";
:vpi_module "/usr/lib/ivl/v2009.vpi";
S_0x642a46528b10 .scope package, "$unit" "$unit" 2 1;
 .timescale 0 0;
S_0x642a46530e60 .scope module, "axi4_tb" "axi4_tb" 3 1;
 .timescale 0 0;
P_0x642a464bf230 .param/l "ASZ" 1 3 4, +C4<00000000000000000000000000000010>;
P_0x642a464bf270 .param/l "DSZ" 1 3 3, +C4<00000000000000000000000000001000>;
P_0x642a464bf2b0 .param/l "SZ" 1 3 2, +C4<00000000000000000000000000100000>;
v0x642a46559910_0 .var "_rst", 0 0;
v0x642a465599d0_0 .var "a", 31 0;
v0x642a46559ac0_0 .net "araddr", 1 0, v0x642a465013e0_0;  1 drivers
v0x642a46559be0_0 .net "arready", 0 0, v0x642a46557f00_0;  1 drivers
v0x642a46559cd0_0 .net "arvalid", 0 0, v0x642a46555020_0;  1 drivers
v0x642a46559e10_0 .net "awaddr", 1 0, v0x642a46555130_0;  1 drivers
v0x642a46559f00_0 .net "awready", 0 0, v0x642a46558230_0;  1 drivers
v0x642a46559ff0_0 .net "awvalid", 0 0, v0x642a465552d0_0;  1 drivers
v0x642a4655a0e0_0 .var "b", 31 0;
v0x642a4655a1a0_0 .net "bready", 0 0, v0x642a46555470_0;  1 drivers
v0x642a4655a240_0 .net "bresp", 0 0, v0x642a465584a0_0;  1 drivers
v0x642a4655a330_0 .net "bvalid", 0 0, v0x642a46558570_0;  1 drivers
v0x642a4655a420_0 .var "clk", 0 0;
v0x642a4655a4c0_0 .net "out_clk", 0 0, L_0x642a4653b6a0;  1 drivers
v0x642a4655a560_0 .net "rdata", 7 0, v0x642a46558d00_0;  1 drivers
v0x642a4655a650_0 .net "res", 63 0, L_0x642a4655b6c0;  1 drivers
v0x642a4655a6f0_0 .net "rlast", 0 0, v0x642a46558df0_0;  1 drivers
v0x642a4655a8f0_0 .net "rready", 0 0, v0x642a46556040_0;  1 drivers
v0x642a4655a9e0_0 .net "rresp", 0 0, v0x642a46559030_0;  1 drivers
v0x642a4655aad0_0 .net "rvalid", 0 0, v0x642a46559100_0;  1 drivers
v0x642a4655abc0_0 .net "wdata", 7 0, v0x642a46556280_0;  1 drivers
v0x642a4655acb0_0 .net "wlast", 0 0, v0x642a46556360_0;  1 drivers
v0x642a4655ada0_0 .net "wready", 0 0, v0x642a465594e0_0;  1 drivers
v0x642a4655ae90_0 .net "wvalid", 0 0, v0x642a465565c0_0;  1 drivers
S_0x642a46531fc0 .scope module, "master" "axi4_master_wrapper" 3 41, 4 1 0, S_0x642a46530e60;
 .timescale 0 0;
    .port_info 0 /INPUT 1 "_rst";
    .port_info 1 /INPUT 1 "clk";
    .port_info 2 /OUTPUT 1 "out_clk";
    .port_info 3 /INPUT 32 "a";
    .port_info 4 /INPUT 32 "b";
    .port_info 5 /OUTPUT 64 "res";
    .port_info 6 /OUTPUT 2 "awaddr";
    .port_info 7 /OUTPUT 1 "awvalid";
    .port_info 8 /INPUT 1 "awready";
    .port_info 9 /OUTPUT 8 "wdata";
    .port_info 10 /OUTPUT 1 "wvalid";
    .port_info 11 /INPUT 1 "wready";
    .port_info 12 /OUTPUT 1 "wlast";
    .port_info 13 /INPUT 1 "bresp";
    .port_info 14 /INPUT 1 "bvalid";
    .port_info 15 /OUTPUT 1 "bready";
    .port_info 16 /OUTPUT 2 "araddr";
    .port_info 17 /OUTPUT 1 "arvalid";
    .port_info 18 /INPUT 1 "arready";
    .port_info 19 /INPUT 8 "rdata";
    .port_info 20 /INPUT 1 "rvalid";
    .port_info 21 /OUTPUT 1 "rready";
    .port_info 22 /INPUT 1 "rlast";
    .port_info 23 /INPUT 1 "rresp";
P_0x642a464bfc70 .param/l "ASZ" 0 4 3, +C4<00000000000000000000000000000010>;
P_0x642a464bfcb0 .param/l "DSZ" 0 4 4, +C4<00000000000000000000000000001000>;
P_0x642a464bfcf0 .param/l "SZ" 0 4 2, +C4<00000000000000000000000000100000>;
L_0x642a4653b6a0 .functor BUFZ 1, v0x642a4655a420_0, C4<0>, C4<0>, C4<0>;
v0x642a464bec50_0 .net "_rst", 0 0, v0x642a46559910_0;  1 drivers
v0x642a4650b8a0_0 .net "a", 31 0, v0x642a465599d0_0;  1 drivers
v0x642a465013e0_0 .var "araddr", 1 0;
v0x642a464f9280_0 .net "arready", 0 0, v0x642a46557f00_0;  alias, 1 drivers
v0x642a46555020_0 .var "arvalid", 0 0;
v0x642a46555130_0 .var "awaddr", 1 0;
v0x642a46555210_0 .net "awready", 0 0, v0x642a46558230_0;  alias, 1 drivers
v0x642a465552d0_0 .var "awvalid", 0 0;
v0x642a46555390_0 .net "b", 31 0, v0x642a4655a0e0_0;  1 drivers
v0x642a46555470_0 .var "bready", 0 0;
v0x642a46555530_0 .net "bresp", 0 0, v0x642a465584a0_0;  alias, 1 drivers
v0x642a465555f0_0 .net "bvalid", 0 0, v0x642a46558570_0;  alias, 1 drivers
v0x642a465556b0_0 .net "clk", 0 0, v0x642a4655a420_0;  1 drivers
v0x642a46555770_0 .var/2s "i", 31 0;
v0x642a46555850 .array "inregs", 7 0, 7 0;
v0x642a46555a10_0 .net "out_clk", 0 0, L_0x642a4653b6a0;  alias, 1 drivers
v0x642a46555ad0 .array "outregs", 7 0;
v0x642a46555ad0_0 .net v0x642a46555ad0 0, 7 0, L_0x642a4655afc0; 1 drivers
v0x642a46555ad0_1 .net v0x642a46555ad0 1, 7 0, L_0x642a4655b0b0; 1 drivers
v0x642a46555ad0_2 .net v0x642a46555ad0 2, 7 0, L_0x642a4655b150; 1 drivers
v0x642a46555ad0_3 .net v0x642a46555ad0 3, 7 0, L_0x642a4655b280; 1 drivers
v0x642a46555ad0_4 .net v0x642a46555ad0 4, 7 0, L_0x642a4655b320; 1 drivers
v0x642a46555ad0_5 .net v0x642a46555ad0 5, 7 0, L_0x642a4655b3c0; 1 drivers
v0x642a46555ad0_6 .net v0x642a46555ad0 6, 7 0, L_0x642a4655b4a0; 1 drivers
v0x642a46555ad0_7 .net v0x642a46555ad0 7, 7 0, L_0x642a4655b5d0; 1 drivers
v0x642a46555ce0_0 .net "rdata", 7 0, v0x642a46558d00_0;  alias, 1 drivers
v0x642a46555dc0_0 .net "res", 63 0, L_0x642a4655b6c0;  alias, 1 drivers
v0x642a46555ea0_0 .net "rlast", 0 0, v0x642a46558df0_0;  alias, 1 drivers
v0x642a46555f60_0 .var "rpos", 7 0;
v0x642a46556040_0 .var "rready", 0 0;
v0x642a46556100_0 .net "rresp", 0 0, v0x642a46559030_0;  alias, 1 drivers
v0x642a465561c0_0 .net "rvalid", 0 0, v0x642a46559100_0;  alias, 1 drivers
v0x642a46556280_0 .var "wdata", 7 0;
v0x642a46556360_0 .var "wlast", 0 0;
v0x642a46556420_0 .var "wpos", 7 0;
v0x642a46556500_0 .net "wready", 0 0, v0x642a465594e0_0;  alias, 1 drivers
v0x642a465565c0_0 .var "wvalid", 0 0;
E_0x642a4650ec60/0 .event negedge, v0x642a464bec50_0;
E_0x642a4650ec60/1 .event posedge, v0x642a465556b0_0;
E_0x642a4650ec60 .event/or E_0x642a4650ec60/0, E_0x642a4650ec60/1;
L_0x642a4655afc0 .part v0x642a465599d0_0, 0, 8;
L_0x642a4655b0b0 .part v0x642a465599d0_0, 8, 8;
L_0x642a4655b150 .part v0x642a465599d0_0, 16, 8;
L_0x642a4655b280 .part v0x642a465599d0_0, 24, 8;
L_0x642a4655b320 .part v0x642a4655a0e0_0, 0, 8;
L_0x642a4655b3c0 .part v0x642a4655a0e0_0, 8, 8;
L_0x642a4655b4a0 .part v0x642a4655a0e0_0, 16, 8;
L_0x642a4655b5d0 .part v0x642a4655a0e0_0, 24, 8;
v0x642a46555850_0 .array/port v0x642a46555850, 0;
v0x642a46555850_1 .array/port v0x642a46555850, 1;
v0x642a46555850_2 .array/port v0x642a46555850, 2;
v0x642a46555850_3 .array/port v0x642a46555850, 3;
LS_0x642a4655b6c0_0_0 .concat [ 8 8 8 8], v0x642a46555850_0, v0x642a46555850_1, v0x642a46555850_2, v0x642a46555850_3;
v0x642a46555850_4 .array/port v0x642a46555850, 4;
v0x642a46555850_5 .array/port v0x642a46555850, 5;
v0x642a46555850_6 .array/port v0x642a46555850, 6;
v0x642a46555850_7 .array/port v0x642a46555850, 7;
LS_0x642a4655b6c0_0_4 .concat [ 8 8 8 8], v0x642a46555850_4, v0x642a46555850_5, v0x642a46555850_6, v0x642a46555850_7;
L_0x642a4655b6c0 .concat [ 32 32 0 0], LS_0x642a4655b6c0_0_0, LS_0x642a4655b6c0_0_4;
S_0x642a46556a50 .scope module, "slave" "axi4_slave_wrapper" 3 77, 5 1 0, S_0x642a46530e60;
 .timescale 0 0;
    .port_info 0 /INPUT 1 "_rst";
    .port_info 1 /INPUT 1 "clk";
    .port_info 2 /INPUT 2 "awaddr";
    .port_info 3 /INPUT 1 "awvalid";
    .port_info 4 /OUTPUT 1 "awready";
    .port_info 5 /INPUT 8 "wdata";
    .port_info 6 /INPUT 1 "wvalid";
    .port_info 7 /OUTPUT 1 "wready";
    .port_info 8 /INPUT 1 "wlast";
    .port_info 9 /OUTPUT 1 "bresp";
    .port_info 10 /OUTPUT 1 "bvalid";
    .port_info 11 /INPUT 1 "bready";
    .port_info 12 /INPUT 2 "araddr";
    .port_info 13 /INPUT 1 "arvalid";
    .port_info 14 /OUTPUT 1 "arready";
    .port_info 15 /OUTPUT 8 "rdata";
    .port_info 16 /OUTPUT 1 "rvalid";
    .port_info 17 /INPUT 1 "rready";
    .port_info 18 /OUTPUT 1 "rlast";
    .port_info 19 /OUTPUT 1 "rresp";
P_0x642a4652c140 .param/l "ASZ" 0 5 3, +C4<00000000000000000000000000000010>;
P_0x642a4652c180 .param/l "DSZ" 0 5 4, +C4<00000000000000000000000000001000>;
P_0x642a4652c1c0 .param/l "SZ" 0 5 2, +C4<00000000000000000000000000100000>;
v0x642a46557cb0_0 .net "_rst", 0 0, v0x642a46559910_0;  alias, 1 drivers
v0x642a46557d70_0 .net "araddr", 1 0, v0x642a465013e0_0;  alias, 1 drivers
v0x642a46557e30_0 .var "araddr_reg", 1 0;
v0x642a46557f00_0 .var "arready", 0 0;
v0x642a46557fd0_0 .net "arvalid", 0 0, v0x642a46555020_0;  alias, 1 drivers
v0x642a465580c0_0 .net "awaddr", 1 0, v0x642a46555130_0;  alias, 1 drivers
v0x642a46558190_0 .var "awaddr_reg", 1 0;
v0x642a46558230_0 .var "awready", 0 0;
v0x642a46558300_0 .net "awvalid", 0 0, v0x642a465552d0_0;  alias, 1 drivers
v0x642a465583d0_0 .net "bready", 0 0, v0x642a46555470_0;  alias, 1 drivers
v0x642a465584a0_0 .var "bresp", 0 0;
v0x642a46558570_0 .var "bvalid", 0 0;
v0x642a46558640_0 .net "clk", 0 0, L_0x642a4653b6a0;  alias, 1 drivers
v0x642a465586e0_0 .var/2s "i", 31 0;
v0x642a46558780 .array "inregs", 15 0, 7 0;
L_0x7c1e3bc960a8 .functor BUFT 1, C4<1>, C4<0>, C4<0>, C4<0>;
v0x642a46558a70_0 .net "mulready", 0 0, L_0x7c1e3bc960a8;  1 drivers
v0x642a46558b10 .array "outregs", 7 0;
v0x642a46558b10_0 .net v0x642a46558b10 0, 7 0, L_0x642a4656c5a0; 1 drivers
v0x642a46558b10_1 .net v0x642a46558b10 1, 7 0, L_0x642a4656c3c0; 1 drivers
v0x642a46558b10_2 .net v0x642a46558b10 2, 7 0, L_0x642a4656c2a0; 1 drivers
v0x642a46558b10_3 .net v0x642a46558b10 3, 7 0, L_0x642a4656c200; 1 drivers
v0x642a46558b10_4 .net v0x642a46558b10 4, 7 0, L_0x642a4656c0f0; 1 drivers
v0x642a46558b10_5 .net v0x642a46558b10 5, 7 0, L_0x642a4656bf90; 1 drivers
v0x642a46558b10_6 .net v0x642a46558b10 6, 7 0, L_0x642a4656bec0; 1 drivers
v0x642a46558b10_7 .net v0x642a46558b10 7, 7 0, L_0x642a4656bda0; 1 drivers
v0x642a46558d00_0 .var "rdata", 7 0;
v0x642a46558df0_0 .var "rlast", 0 0;
v0x642a46558ec0_0 .var "rpos", 7 0;
v0x642a46558f60_0 .net "rready", 0 0, v0x642a46556040_0;  alias, 1 drivers
v0x642a46559030_0 .var "rresp", 0 0;
v0x642a46559100_0 .var "rvalid", 0 0;
v0x642a465591d0_0 .var "start", 0 0;
v0x642a465592a0_0 .net "wdata", 7 0, v0x642a46556280_0;  alias, 1 drivers
v0x642a46559370_0 .net "wlast", 0 0, v0x642a46556360_0;  alias, 1 drivers
v0x642a46559440_0 .var "wpos", 7 0;
v0x642a465594e0_0 .var "wready", 0 0;
v0x642a465595b0_0 .net "wvalid", 0 0, v0x642a465565c0_0;  alias, 1 drivers
E_0x642a46514ff0/0 .event negedge, v0x642a464bec50_0;
E_0x642a46514ff0/1 .event posedge, v0x642a46555a10_0;
E_0x642a46514ff0 .event/or E_0x642a46514ff0/0, E_0x642a46514ff0/1;
v0x642a46558780_0 .array/port v0x642a46558780, 0;
v0x642a46558780_1 .array/port v0x642a46558780, 1;
v0x642a46558780_2 .array/port v0x642a46558780, 2;
v0x642a46558780_3 .array/port v0x642a46558780, 3;
L_0x642a4656baa0 .concat [ 8 8 8 8], v0x642a46558780_0, v0x642a46558780_1, v0x642a46558780_2, v0x642a46558780_3;
v0x642a46558780_4 .array/port v0x642a46558780, 4;
v0x642a46558780_5 .array/port v0x642a46558780, 5;
v0x642a46558780_6 .array/port v0x642a46558780, 6;
v0x642a46558780_7 .array/port v0x642a46558780, 7;
L_0x642a4656bbf0 .concat [ 8 8 8 8], v0x642a46558780_4, v0x642a46558780_5, v0x642a46558780_6, v0x642a46558780_7;
L_0x642a4656bda0 .part L_0x642a4656b910, 56, 8;
L_0x642a4656bec0 .part L_0x642a4656b910, 48, 8;
L_0x642a4656bf90 .part L_0x642a4656b910, 40, 8;
L_0x642a4656c0f0 .part L_0x642a4656b910, 32, 8;
L_0x642a4656c200 .part L_0x642a4656b910, 24, 8;
L_0x642a4656c2a0 .part L_0x642a4656b910, 16, 8;
L_0x642a4656c3c0 .part L_0x642a4656b910, 8, 8;
L_0x642a4656c5a0 .part L_0x642a4656b910, 0, 8;
S_0x642a46556fb0 .scope module, "main_module" "mult" 5 42, 6 1 0, S_0x642a46556a50;
 .timescale 0 0;
    .port_info 0 /INPUT 1 "clk";
    .port_info 1 /INPUT 1 "_rst";
    .port_info 2 /INPUT 32 "a";
    .port_info 3 /INPUT 32 "b";
    .port_info 4 /INPUT 1 "start";
    .port_info 5 /OUTPUT 64 "res";
    .port_info 6 /OUTPUT 1 "ready";
P_0x642a465571b0 .param/l "SZ" 0 6 2, +C4<00000000000000000000000000100000>;
v0x642a46557280_0 .net *"_ivl_0", 63 0, L_0x642a4655b7b0;  1 drivers
L_0x7c1e3bc96018 .functor BUFT 1, C4<00000000000000000000000000000000>, C4<0>, C4<0>, C4<0>;
v0x642a46557380_0 .net *"_ivl_3", 31 0, L_0x7c1e3bc96018;  1 drivers
v0x642a46557460_0 .net *"_ivl_4", 63 0, L_0x642a46555960;  1 drivers
L_0x7c1e3bc96060 .functor BUFT 1, C4<00000000000000000000000000000000>, C4<0>, C4<0>, C4<0>;
v0x642a46557550_0 .net *"_ivl_7", 31 0, L_0x7c1e3bc96060;  1 drivers
v0x642a46557630_0 .net "_rst", 0 0, v0x642a46559910_0;  alias, 1 drivers
v0x642a46557720_0 .net "a", 31 0, L_0x642a4656baa0;  1 drivers
v0x642a465577e0_0 .net "b", 31 0, L_0x642a4656bbf0;  1 drivers
v0x642a465578c0_0 .net "clk", 0 0, L_0x642a4653b6a0;  alias, 1 drivers
v0x642a46557990_0 .net "ready", 0 0, L_0x7c1e3bc960a8;  alias, 1 drivers
v0x642a46557a30_0 .net "res", 63 0, L_0x642a4656b910;  1 drivers
v0x642a46557b10_0 .net "start", 0 0, v0x642a465591d0_0;  1 drivers
L_0x642a4655b7b0 .concat [ 32 32 0 0], L_0x642a4656baa0, L_0x7c1e3bc96018;
L_0x642a46555960 .concat [ 32 32 0 0], L_0x642a4656bbf0, L_0x7c1e3bc96060;
L_0x642a4656b910 .arith/mult 64, L_0x642a4655b7b0, L_0x642a46555960;
    .scope S_0x642a46531fc0;
T_0 ;
    %wait E_0x642a4650ec60;
    %load/vec4 v0x642a464bec50_0;
    %inv;
    %flag_set/vec4 8;
    %jmp/0xz  T_0.0, 8;
    %pushi/vec4 0, 0, 8;
    %assign/vec4 v0x642a46556280_0, 0;
    %pushi/vec4 0, 0, 1;
    %assign/vec4 v0x642a465565c0_0, 0;
    %pushi/vec4 0, 0, 1;
    %assign/vec4 v0x642a46556360_0, 0;
    %pushi/vec4 0, 0, 1;
    %assign/vec4 v0x642a46555470_0, 0;
    %pushi/vec4 0, 0, 1;
    %assign/vec4 v0x642a46556040_0, 0;
    %pushi/vec4 0, 0, 32;
    %store/vec4 v0x642a46555770_0, 0, 32;
T_0.2 ;
    %load/vec4 v0x642a46555770_0;
    %cmpi/s 8, 0, 32;
    %jmp/0xz T_0.3, 5;
    %pushi/vec4 0, 0, 8;
    %ix/getv/s 3, v0x642a46555770_0;
    %ix/load 4, 0, 0; Constant delay
    %assign/vec4/a/d v0x642a46555850, 0, 4;
    %load/vec4 v0x642a46555770_0;
    %addi 1, 0, 32;
    %cast2;
    %store/vec4 v0x642a46555770_0, 0, 32;
    %jmp T_0.2;
T_0.3 ;
    %pushi/vec4 0, 0, 8;
    %assign/vec4 v0x642a46556420_0, 0;
    %pushi/vec4 0, 0, 8;
    %assign/vec4 v0x642a46555f60_0, 0;
    %pushi/vec4 0, 0, 2;
    %assign/vec4 v0x642a46555130_0, 0;
    %pushi/vec4 1, 0, 1;
    %assign/vec4 v0x642a465552d0_0, 0;
    %pushi/vec4 0, 0, 2;
    %assign/vec4 v0x642a465013e0_0, 0;
    %pushi/vec4 1, 0, 1;
    %assign/vec4 v0x642a46555020_0, 0;
    %jmp T_0.1;
T_0.0 ;
    %load/vec4 v0x642a465552d0_0;
    %load/vec4 v0x642a46555210_0;
    %and;
    %flag_set/vec4 8;
    %jmp/0xz  T_0.4, 8;
    %load/vec4 v0x642a46555130_0;
    %pad/u 32;
    %muli 4, 0, 32;
    %ix/vec4 4;
    %load/vec4a v0x642a46555ad0, 4;
    %load/vec4 v0x642a46555130_0;
    %pad/u 32;
    %muli 4, 0, 32;
    %vpi_call/w 4 79 "$display", $time, " | master | ", "snd wdata : ", S<1,vec4,u8>, " ind : %1d", S<0,vec4,u32> {2 0 0};
    %pushi/vec4 0, 0, 1;
    %assign/vec4 v0x642a465552d0_0, 0;
    %load/vec4 v0x642a46555130_0;
    %pad/u 32;
    %muli 4, 0, 32;
    %ix/vec4 4;
    %load/vec4a v0x642a46555ad0, 4;
    %assign/vec4 v0x642a46556280_0, 0;
    %load/vec4 v0x642a46555130_0;
    %pad/u 8;
    %muli 4, 0, 8;
    %addi 1, 0, 8;
    %assign/vec4 v0x642a46556420_0, 0;
    %pushi/vec4 1, 0, 1;
    %assign/vec4 v0x642a465565c0_0, 0;
    %pushi/vec4 0, 0, 1;
    %assign/vec4 v0x642a46556360_0, 0;
T_0.4 ;
    %load/vec4 v0x642a465565c0_0;
    %load/vec4 v0x642a46556500_0;
    %and;
    %flag_set/vec4 8;
    %jmp/0xz  T_0.6, 8;
    %vpi_call/w 4 88 "$display", $time, " | master | ", "snd wdata : ", &A<v0x642a46555ad0, v0x642a46556420_0 >, " ind : %1d", v0x642a46556420_0 {0 0 0};
    %ix/getv 4, v0x642a46556420_0;
    %load/vec4a v0x642a46555ad0, 4;
    %assign/vec4 v0x642a46556280_0, 0;
    %load/vec4 v0x642a46556420_0;
    %addi 1, 0, 8;
    %assign/vec4 v0x642a46556420_0, 0;
    %load/vec4 v0x642a46556420_0;
    %pad/u 32;
    %pushi/vec4 3, 0, 32;
    %and;
    %pushi/vec4 3, 0, 32;
    %cmp/e;
    %flag_get/vec4 4;
    %assign/vec4 v0x642a46556360_0, 0;
T_0.6 ;
    %load/vec4 v0x642a465565c0_0;
    %load/vec4 v0x642a46556500_0;
    %and;
    %load/vec4 v0x642a46556360_0;
    %and;
    %flag_set/vec4 8;
    %jmp/0xz  T_0.8, 8;
    %pushi/vec4 0, 0, 1;
    %assign/vec4 v0x642a465565c0_0, 0;
    %pushi/vec4 0, 0, 1;
    %assign/vec4 v0x642a46556360_0, 0;
    %pushi/vec4 0, 0, 8;
    %assign/vec4 v0x642a46556280_0, 0;
    %pushi/vec4 1, 0, 1;
    %assign/vec4 v0x642a46555470_0, 0;
T_0.8 ;
    %load/vec4 v0x642a46555470_0;
    %load/vec4 v0x642a465555f0_0;
    %and;
    %flag_set/vec4 8;
    %jmp/0xz  T_0.10, 8;
    %vpi_call/w 4 100 "$display", $time, " | master | ", "bresp : ", v0x642a46555530_0 {0 0 0};
    %pushi/vec4 0, 0, 1;
    %assign/vec4 v0x642a46555470_0, 0;
    %pushi/vec4 1, 0, 1;
    %assign/vec4 v0x642a465552d0_0, 0;
    %load/vec4 v0x642a46555130_0;
    %addi 1, 0, 2;
    %pushi/vec4 1, 0, 2;
    %and;
    %assign/vec4 v0x642a46555130_0, 0;
T_0.10 ;
    %load/vec4 v0x642a46555020_0;
    %load/vec4 v0x642a464f9280_0;
    %and;
    %flag_set/vec4 8;
    %jmp/0xz  T_0.12, 8;
    %vpi_call/w 4 107 "$display", $time, " | master | ", "res : ", v0x642a46555dc0_0 {0 0 0};
    %pushi/vec4 0, 0, 1;
    %assign/vec4 v0x642a46555020_0, 0;
    %pushi/vec4 0, 0, 8;
    %assign/vec4 v0x642a46555f60_0, 0;
    %pushi/vec4 1, 0, 1;
    %assign/vec4 v0x642a46556040_0, 0;
T_0.12 ;
    %load/vec4 v0x642a46556040_0;
    %load/vec4 v0x642a465561c0_0;
    %and;
    %flag_set/vec4 8;
    %jmp/0xz  T_0.14, 8;
    %vpi_call/w 4 113 "$display", $time, " | master | ", "rcv rdata : ", v0x642a46555ce0_0, " ind : %1d", v0x642a46555f60_0 {0 0 0};
    %load/vec4 v0x642a46555ce0_0;
    %ix/getv 3, v0x642a46555f60_0;
    %ix/load 4, 0, 0; Constant delay
    %assign/vec4/a/d v0x642a46555850, 0, 4;
    %load/vec4 v0x642a46555f60_0;
    %addi 1, 0, 8;
    %assign/vec4 v0x642a46555f60_0, 0;
T_0.14 ;
    %load/vec4 v0x642a46556040_0;
    %load/vec4 v0x642a465561c0_0;
    %and;
    %load/vec4 v0x642a46555ea0_0;
    %and;
    %flag_set/vec4 8;
    %jmp/0xz  T_0.16, 8;
    %pushi/vec4 0, 0, 1;
    %assign/vec4 v0x642a46556040_0, 0;
    %pushi/vec4 1, 0, 1;
    %assign/vec4 v0x642a46555020_0, 0;
T_0.16 ;
T_0.1 ;
    %jmp T_0;
    .thread T_0;
    .scope S_0x642a46556a50;
T_1 ;
    %wait E_0x642a46514ff0;
    %load/vec4 v0x642a46557cb0_0;
    %inv;
    %flag_set/vec4 8;
    %jmp/0xz  T_1.0, 8;
    %pushi/vec4 0, 0, 8;
    %assign/vec4 v0x642a46559440_0, 0;
    %pushi/vec4 0, 0, 8;
    %assign/vec4 v0x642a46558ec0_0, 0;
    %pushi/vec4 0, 0, 2;
    %assign/vec4 v0x642a46558190_0, 0;
    %pushi/vec4 0, 0, 2;
    %assign/vec4 v0x642a46557e30_0, 0;
    %pushi/vec4 0, 0, 32;
    %store/vec4 v0x642a465586e0_0, 0, 32;
T_1.2 ;
    %load/vec4 v0x642a465586e0_0;
    %cmpi/s 16, 0, 32;
    %jmp/0xz T_1.3, 5;
    %pushi/vec4 0, 0, 8;
    %ix/getv/s 3, v0x642a465586e0_0;
    %ix/load 4, 0, 0; Constant delay
    %assign/vec4/a/d v0x642a46558780, 0, 4;
    %load/vec4 v0x642a465586e0_0;
    %addi 1, 0, 32;
    %cast2;
    %store/vec4 v0x642a465586e0_0, 0, 32;
    %jmp T_1.2;
T_1.3 ;
    %pushi/vec4 1, 0, 1;
    %assign/vec4 v0x642a465591d0_0, 0;
    %pushi/vec4 0, 0, 1;
    %assign/vec4 v0x642a465594e0_0, 0;
    %pushi/vec4 0, 0, 1;
    %assign/vec4 v0x642a465584a0_0, 0;
    %pushi/vec4 0, 0, 1;
    %assign/vec4 v0x642a46558570_0, 0;
    %pushi/vec4 0, 0, 8;
    %assign/vec4 v0x642a46558d00_0, 0;
    %pushi/vec4 0, 0, 1;
    %assign/vec4 v0x642a46559100_0, 0;
    %pushi/vec4 0, 0, 1;
    %assign/vec4 v0x642a46558df0_0, 0;
    %pushi/vec4 0, 0, 1;
    %assign/vec4 v0x642a46559030_0, 0;
    %pushi/vec4 1, 0, 1;
    %assign/vec4 v0x642a46558230_0, 0;
    %pushi/vec4 1, 0, 1;
    %assign/vec4 v0x642a46557f00_0, 0;
    %jmp T_1.1;
T_1.0 ;
    %load/vec4 v0x642a46558230_0;
    %load/vec4 v0x642a46558300_0;
    %and;
    %flag_set/vec4 8;
    %jmp/0xz  T_1.4, 8;
    %load/vec4 v0x642a465580c0_0;
    %assign/vec4 v0x642a46558190_0, 0;
    %load/vec4 v0x642a465580c0_0;
    %pad/u 32;
    %muli 4, 0, 32;
    %pad/u 8;
    %assign/vec4 v0x642a46559440_0, 0;
    %pushi/vec4 0, 0, 1;
    %assign/vec4 v0x642a46558230_0, 0;
    %pushi/vec4 1, 0, 1;
    %assign/vec4 v0x642a465594e0_0, 0;
T_1.4 ;
    %load/vec4 v0x642a465594e0_0;
    %load/vec4 v0x642a465595b0_0;
    %and;
    %flag_set/vec4 8;
    %jmp/0xz  T_1.6, 8;
    %vpi_call/w 5 99 "$display", $time, " | slave | ", "rcv wdata : ", v0x642a465592a0_0, " ind : %1d", v0x642a46559440_0 {0 0 0};
    %load/vec4 v0x642a465592a0_0;
    %ix/getv 3, v0x642a46559440_0;
    %ix/load 4, 0, 0; Constant delay
    %assign/vec4/a/d v0x642a46558780, 0, 4;
    %load/vec4 v0x642a46559440_0;
    %addi 1, 0, 8;
    %assign/vec4 v0x642a46559440_0, 0;
T_1.6 ;
    %load/vec4 v0x642a465594e0_0;
    %load/vec4 v0x642a465595b0_0;
    %and;
    %load/vec4 v0x642a46559370_0;
    %and;
    %flag_set/vec4 8;
    %jmp/0xz  T_1.8, 8;
    %pushi/vec4 0, 0, 1;
    %assign/vec4 v0x642a465594e0_0, 0;
    %pushi/vec4 1, 0, 1;
    %assign/vec4 v0x642a465584a0_0, 0;
    %pushi/vec4 1, 0, 1;
    %assign/vec4 v0x642a46558570_0, 0;
T_1.8 ;
    %load/vec4 v0x642a465583d0_0;
    %load/vec4 v0x642a46558570_0;
    %and;
    %flag_set/vec4 8;
    %jmp/0xz  T_1.10, 8;
    %pushi/vec4 0, 0, 1;
    %assign/vec4 v0x642a46558570_0, 0;
    %pushi/vec4 1, 0, 1;
    %assign/vec4 v0x642a46558230_0, 0;
T_1.10 ;
    %load/vec4 v0x642a46557f00_0;
    %load/vec4 v0x642a46557fd0_0;
    %and;
    %load/vec4 v0x642a46558a70_0;
    %and;
    %flag_set/vec4 8;
    %jmp/0xz  T_1.12, 8;
    %vpi_call/w 5 115 "$display", $time, " | slave | ", "snd rdata : ", v0x642a46558b10_0, " ind : %1d", 32'sb00000000000000000000000000000000 {0 0 0};
    %load/vec4 v0x642a46557d70_0;
    %assign/vec4 v0x642a46557e30_0, 0;
    %pushi/vec4 0, 0, 1;
    %assign/vec4 v0x642a46557f00_0, 0;
    %ix/load 4, 0, 0;
    %flag_set/imm 4, 0;
    %load/vec4a v0x642a46558b10, 4;
    %assign/vec4 v0x642a46558d00_0, 0;
    %pushi/vec4 1, 0, 8;
    %assign/vec4 v0x642a46558ec0_0, 0;
    %pushi/vec4 1, 0, 1;
    %assign/vec4 v0x642a46559100_0, 0;
    %pushi/vec4 1, 0, 1;
    %assign/vec4 v0x642a46559030_0, 0;
    %pushi/vec4 0, 0, 1;
    %assign/vec4 v0x642a46558df0_0, 0;
T_1.12 ;
    %load/vec4 v0x642a46558f60_0;
    %load/vec4 v0x642a46559100_0;
    %and;
    %flag_set/vec4 8;
    %jmp/0xz  T_1.14, 8;
    %vpi_call/w 5 125 "$display", $time, " | slave | ", "snd rdata : ", &A<v0x642a46558b10, v0x642a46558ec0_0 >, " ind : %1d", v0x642a46558ec0_0 {0 0 0};
    %ix/getv 4, v0x642a46558ec0_0;
    %load/vec4a v0x642a46558b10, 4;
    %assign/vec4 v0x642a46558d00_0, 0;
    %load/vec4 v0x642a46558ec0_0;
    %addi 1, 0, 8;
    %assign/vec4 v0x642a46558ec0_0, 0;
    %load/vec4 v0x642a46558ec0_0;
    %pad/u 32;
    %pushi/vec4 7, 0, 32;
    %cmp/e;
    %flag_get/vec4 4;
    %assign/vec4 v0x642a46558df0_0, 0;
T_1.14 ;
    %load/vec4 v0x642a46558f60_0;
    %load/vec4 v0x642a46559100_0;
    %and;
    %load/vec4 v0x642a46558df0_0;
    %and;
    %flag_set/vec4 8;
    %jmp/0xz  T_1.16, 8;
    %pushi/vec4 0, 0, 1;
    %assign/vec4 v0x642a46559100_0, 0;
    %pushi/vec4 0, 0, 8;
    %assign/vec4 v0x642a46558d00_0, 0;
    %pushi/vec4 0, 0, 1;
    %assign/vec4 v0x642a46558df0_0, 0;
    %pushi/vec4 0, 0, 1;
    %assign/vec4 v0x642a46559030_0, 0;
    %pushi/vec4 1, 0, 1;
    %assign/vec4 v0x642a46557f00_0, 0;
T_1.16 ;
T_1.1 ;
    %jmp T_1;
    .thread T_1;
    .scope S_0x642a46530e60;
T_2 ;
    %pushi/vec4 0, 0, 1;
    %store/vec4 v0x642a4655a420_0, 0, 1;
    %pushi/vec4 0, 0, 32;
    %store/vec4 v0x642a465599d0_0, 0, 32;
    %pushi/vec4 0, 0, 32;
    %store/vec4 v0x642a4655a0e0_0, 0, 32;
    %pushi/vec4 0, 0, 1;
    %store/vec4 v0x642a46559910_0, 0, 1;
T_2.0 ;
    %delay 1, 0;
    %load/vec4 v0x642a4655a420_0;
    %nor/r;
    %store/vec4 v0x642a4655a420_0, 0, 1;
    %jmp T_2.0;
    %end;
    .thread T_2;
    .scope S_0x642a46530e60;
T_3 ;
    %vpi_call/w 3 114 "$monitor", $time, " | tb | ", v0x642a465599d0_0, " * ", v0x642a4655a0e0_0, " => ", v0x642a4655a650_0 {0 0 0};
    %delay 8, 0;
    %pushi/vec4 1, 0, 1;
    %store/vec4 v0x642a46559910_0, 0, 1;
    %pushi/vec4 12551, 0, 32;
    %store/vec4 v0x642a465599d0_0, 0, 32;
    %pushi/vec4 41245, 0, 32;
    %store/vec4 v0x642a4655a0e0_0, 0, 32;
    %delay 64, 0;
    %vpi_call/w 3 118 "$finish" {0 0 0};
    %end;
    .thread T_3;
# The file index is used to find the file name in the following table.
:file_names 7;
    "N/A";
    "<interactive>";
    "-";
    "src/axi4_tb.sv";
    "src/axi4_master_wrapper.sv";
    "src/axi4_slave_wrapper.sv";
    "src/mult.sv";
